;$FILEVERSION=1.1
;$STARTTIME=44267.6812310301
;
;   Start time: 12/03/2021 16:20:58.361.0
;   Generated by PCAN-View v4.3.3.610
;
;   Message Number
;   |         Time Offset (ms)
;   |         |        Type
;   |         |        |        ID (hex)
;   |         |        |        |     Data Length
;   |         |        |        |     |   Data Bytes (hex) ...
;   |         |        |        |     |   |
;---+--   ----+----  --+--  ----+---  +  -+ -- -- -- -- -- -- --
     1)         2.2  Rx         0723  1  05 
     2)         4.5  Rx         0196  4  E8 2F F4 01 
     3)        13.4  Rx         01A3  4  83 0D F4 01 
     4)        28.1  Rx         01CB  8  00 00 00 00 00 00 D8 03 
     5)        28.8  Rx         02CB  4  00 00 1C 00 
     6)        29.5  Rx         03CB  5  01 00 00 00 00 
     7)        35.7  Rx         070B  1  05 
     8)        38.8  Rx         0197  4  FA 14 F4 01 
     9)        39.7  Rx         019E  4  F3 2F F4 01 
    10)        40.7  Rx         01B0  4  82 0D F4 01 
    11)        50.5  Rx         0185  8  FF FF FF FF FF FF FF FF 
    12)        51.1  Rx         0285  3  00 00 00 
    13)        52.2  Rx         0385  8  00 00 00 00 00 00 10 00 
    14)        53.2  Rx         0183  8  00 00 00 00 00 00 00 00 
    15)        54.5  Rx         0196  4  E8 2F F4 01 
    16)        55.9  Rx         0381  6  2D 16 10 0C 03 15 
    17)        56.8  Rx         0281  7  01 00 00 00 00 00 00 
    18)        57.8  Rx         0382  7  00 00 00 00 00 00 00 
    19)        58.7  Rx         0481  8  01 00 02 00 00 00 2B B2 
    20)        59.8  Rx         0184  8  00 00 00 00 00 00 00 00 
    21)        60.8  Rx         0186  8  00 00 00 00 00 00 00 00 
    22)        61.5  Rx         0188  4  00 00 00 00 
    23)        62.5  Rx         0182  8  9C 00 00 00 00 00 00 00 
    24)        63.2  Rx         0189  4  00 00 00 00 
    25)        63.9  Rx         01A3  4  83 0D F4 01 
    26)        64.9  Rx         0181  8  00 00 00 00 00 00 00 00 
    27)        72.6  Rx         0717  1  05 
    28)        78.5  Rx         0730  1  05 
    29)        81.2  Rx         010B  6  00 00 00 00 00 00 
    30)        81.9  Rx         020B  5  04 01 00 00 01 
    31)        83.0  Rx         030B  8  18 00 00 00 00 00 00 00 
    32)        87.1  Rx         01CB  8  00 00 00 00 00 00 D8 03 
    33)        88.7  Rx         0197  4  FA 14 F4 01 
    34)        89.4  Rx         02CB  4  00 00 1C 00 
    35)        90.0  Rx         019E  4  F3 2F F4 01 
    36)        90.7  Rx         01B0  4  82 0D F4 01 
    37)        91.5  Rx         03CB  5  01 00 00 00 00 
    38)       101.6  Rx         0185  8  FF FF FF FF FF FF FF FF 
    39)       102.2  Rx         0285  3  00 00 00 
    40)       103.2  Rx         0385  8  00 00 00 00 00 00 10 00 
    41)       104.2  Rx         0183  8  00 00 00 00 00 00 00 00 
    42)       104.9  Rx         0196  4  E8 2F F4 01 
    43)       113.4  Rx         01A3  4  83 0D F4 01 
    44)       138.7  Rx         0197  4  FA 14 F4 01 
    45)       139.8  Rx         019E  4  F3 2F F4 01 
    46)       140.7  Rx         01B0  4  82 0D F4 01 
    47)       153.1  Rx         01CB  8  00 00 00 00 00 00 D8 03 
    48)       153.8  Rx         02CB  4  00 00 1C 00 
    49)       154.6  Rx         03CB  5  01 00 00 00 00 
    50)       155.2  Rx         0196  4  E8 2F F4 01 
    51)       157.8  Rx         0185  8  FF FF FF FF FF FF FF FF 
    52)       158.4  Rx         0285  3  00 00 00 
    53)       159.4  Rx         0385  8  00 00 00 00 00 00 10 00 
    54)       160.4  Rx         0183  8  00 00 00 00 00 00 00 00 
    55)       163.4  Rx         01A3  4  83 0D F4 01 
    56)       181.2  Rx         010B  6  00 00 00 00 00 00 
    57)       182.0  Rx         020B  5  04 01 00 00 01 
    58)       183.0  Rx         030B  8  18 00 00 00 00 00 00 00 
    59)       188.8  Rx         0197  4  FA 14 F4 01 
    60)       189.8  Rx         019E  4  F3 2F F4 01 
    61)       190.7  Rx         01B0  4  82 0D F4 01 
    62)       204.5  Rx         0196  4  E8 2F F4 01 
    63)       208.1  Rx         01CB  8  00 00 00 00 00 00 D8 03 
    64)       208.8  Rx         02CB  4  00 00 1C 00 
    65)       209.6  Rx         03CB  5  01 00 00 00 00 
    66)       212.6  Rx         0185  8  FF FF FF FF FF FF FF FF 
    67)       213.2  Rx         0285  3  00 00 00 
    68)       213.9  Rx         01A3  4  83 0D F4 01 
    69)       214.8  Rx         0385  8  00 00 00 00 00 00 10 00 
    70)       215.9  Rx         0183  8  00 00 00 00 00 00 00 00 
    71)       219.8  Rx         0701  1  05 
    72)       220.8  Rx         01CC  8  00 00 00 00 00 00 00 00 
    73)       221.8  Rx         02CC  8  C8 00 00 00 2C 01 00 00 
    74)       222.8  Rx         04CC  8  C8 00 00 00 2C 01 00 00 
    75)       223.7  Rx         03CC  7  00 00 10 00 00 04 00 
    76)       224.4  Rx         024C  4  00 00 00 00 
    77)       226.5  Rx         071E  1  05 
    78)       238.7  Rx         0197  4  FA 14 F4 01 
    79)       239.8  Rx         019E  4  F3 2F F4 01 
    80)       240.7  Rx         01B0  4  82 0D F4 01 
    81)       244.3  Rx         0716  1  05 
    82)       252.2  Rx         0723  1  05 
    83)       254.5  Rx         0196  4  E8 2F F4 01 
    84)       257.5  Rx         074B  1  05 
    85)       263.1  Rx         01CB  8  00 00 00 00 00 00 D8 03 
    86)       263.7  Rx         01A3  4  83 0D F4 01 
    87)       264.5  Rx         02CB  4  00 00 1C 00 
    88)       265.2  Rx         03CB  5  01 00 00 00 00 
    89)       267.8  Rx         0185  8  FF FF FF FF FF FF FF FF 
    90)       268.4  Rx         0285  3  00 00 00 
    91)       269.4  Rx         0385  8  00 00 00 00 00 00 10 00 
    92)       270.4  Rx         0183  8  00 00 00 00 00 00 00 00 
    93)       281.2  Rx         010B  6  00 00 00 00 00 00 
    94)       282.0  Rx         020B  5  04 01 00 00 01 
    95)       282.9  Rx         030B  8  18 00 00 00 00 00 00 00 
    96)       285.7  Rx         070B  1  05 
    97)       288.7  Rx         0197  4  FA 14 F4 01 
    98)       289.8  Rx         019E  4  F3 2F F4 01 
    99)       290.7  Rx         01B0  4  82 0D F4 01 
   100)       304.5  Rx         0196  4  E8 2F F4 01 
   101)       305.9  Rx         0381  6  2D 16 10 0C 03 15 
   102)       306.8  Rx         0281  7  01 00 00 00 00 00 00 
   103)       307.7  Rx         0382  7  00 00 00 00 00 00 00 
   104)       308.8  Rx         0481  8  01 00 02 00 00 00 2B B2 
   105)       309.8  Rx         0184  8  00 00 00 00 00 00 00 00 
   106)       310.8  Rx         0186  8  00 00 00 00 00 00 00 00 
   107)       311.5  Rx         0188  4  00 00 00 00 
   108)       312.5  Rx         0182  8  9C 00 00 00 00 00 00 00 
   109)       313.2  Rx         0189  4  00 00 00 00 
   110)       313.8  Rx         01A3  4  83 0D F4 01 
   111)       314.9  Rx         0181  8  00 00 00 00 00 00 00 00 
   112)       322.1  Rx         01CB  8  00 00 00 00 00 00 D8 03 
   113)       322.6  Rx         0717  1  05 
   114)       323.3  Rx         02CB  4  00 00 1C 00 
   115)       324.0  Rx         03CB  5  01 00 00 00 00 
   116)       326.5  Rx         0185  8  FF FF FF FF FF FF FF FF 
   117)       327.2  Rx         0285  3  00 00 00 
   118)       328.2  Rx         0385  8  00 00 00 00 00 00 10 00 
   119)       328.6  Rx         0730  1  05 
   120)       329.7  Rx         0183  8  00 00 00 00 00 00 00 00 
   121)       338.7  Rx         0197  4  FA 14 F4 01 
   122)       339.7  Rx         019E  4  F3 2F F4 01 
   123)       340.7  Rx         01B0  4  82 0D F4 01 
   124)       354.5  Rx         0196  4  E8 2F F4 01 
   125)       363.4  Rx         01A3  4  83 0D F4 01 
   126)       379.1  Rx         01CB  8  00 00 00 00 00 00 D8 03 
   127)       379.8  Rx         02CB  4  00 00 1C 00 
   128)       380.6  Rx         03CB  5  01 00 00 00 00 
   129)       381.5  Rx         010B  6  00 00 00 00 00 00 
   130)       382.2  Rx         020B  5  04 01 00 00 01 
   131)       383.2  Rx         030B  8  18 00 00 00 00 00 00 00 
   132)       385.5  Rx         0185  8  FF FF FF FF FF FF FF FF 
   133)       386.1  Rx         0285  3  00 00 00 
   134)       387.1  Rx         0385  8  00 00 00 00 00 00 10 00 
   135)       388.1  Rx         0183  8  00 00 00 00 00 00 00 00 
   136)       388.8  Rx         0197  4  FA 14 F4 01 
   137)       389.7  Rx         019E  4  F3 2F F4 01 
   138)       390.7  Rx         01B0  4  82 0D F4 01 
   139)       404.5  Rx         0196  4  E8 2F F4 01 
   140)       413.4  Rx         01A3  4  83 0D F4 01 
   141)       434.1  Rx         01CB  8  00 00 00 00 00 00 D8 03 
   142)       434.8  Rx         02CB  4  00 00 1C 00 
   143)       435.6  Rx         03CB  5  01 00 00 00 00 
   144)       438.6  Rx         0197  4  FA 14 F4 01 
   145)       439.6  Rx         0185  8  FF FF FF FF FF FF FF FF 
   146)       440.3  Rx         019E  4  F3 2F F4 01 
   147)       441.0  Rx         01B0  4  82 0D F4 01 
   148)       441.6  Rx         0285  3  00 00 00 
   149)       442.6  Rx         0385  8  00 00 00 00 00 00 10 00 
   150)       443.6  Rx         0183  8  00 00 00 00 00 00 00 00 
   151)       454.5  Rx         0196  4  E8 2F F4 01 
   152)       463.4  Rx         01A3  4  83 0D F4 01 
   153)       472.8  Rx         0701  1  05 
   154)       473.9  Rx         01CC  8  00 00 00 00 00 00 00 00 
   155)       474.9  Rx         02CC  8  C8 00 00 00 2C 01 00 00 
   156)       475.8  Rx         04CC  8  C8 00 00 00 2C 01 00 00 
   157)       476.8  Rx         03CC  7  00 00 10 00 00 04 00 
   158)       477.2  Rx         071E  1  05 
   159)       477.9  Rx         024C  4  00 00 00 00 
   160)       481.2  Rx         010B  6  00 00 00 00 00 00 
   161)       481.9  Rx         020B  5  04 01 00 00 01 
   162)       483.0  Rx         030B  8  18 00 00 00 00 00 00 00 
   163)       488.6  Rx         0197  4  FA 14 F4 01 
   164)       489.7  Rx         019E  4  F3 2F F4 01 
   165)       490.7  Rx         0185  8  FF FF FF FF FF FF FF FF 
   166)       491.4  Rx         01B0  4  82 0D F4 01 
   167)       492.4  Rx         01CB  8  00 00 00 00 00 00 D8 03 
   168)       493.0  Rx         0285  3  00 00 00 
   169)       494.0  Rx         0385  8  00 00 00 00 00 00 10 00 
   170)       494.7  Rx         02CB  4  00 00 1C 00 
   171)       495.7  Rx         0183  8  00 00 00 00 00 00 00 00 
   172)       496.5  Rx         03CB  5  01 00 00 00 00 
   173)       497.0  Rx         0716  1  05 
   174)       502.2  Rx         0723  1  05 
   175)       504.5  Rx         0196  4  E8 2F F4 01 
   176)       508.5  Rx         0773  1  05 
   177)       513.4  Rx         01A3  4  83 0D F4 01 
   178)       534.5  Rx         074B  1  05 
   179)       535.7  Rx         070B  1  05 
   180)       538.7  Rx         0197  4  FA 14 F4 01 
   181)       539.7  Rx         019E  4  F3 2F F4 01 
   182)       540.7  Rx         0185  8  FF FF FF FF FF FF FF FF 
   183)       541.4  Rx         01B0  4  82 0D F4 01 
   184)       542.0  Rx         0285  3  00 00 00 
   185)       543.0  Rx         0385  8  00 00 00 00 00 00 10 00 
   186)       544.0  Rx         0183  8  00 00 00 00 00 00 00 00 
   187)       549.1  Rx         01CB  8  00 00 00 00 00 00 D8 03 
   188)       549.9  Rx         02CB  4  00 00 1C 00 
   189)       551.7  Rx         03CB  5  01 00 00 00 00 
   190)       554.5  Rx         0196  4  E8 2F F4 01 
   191)       555.3  Rx         0381  6  2D 16 10 0C 03 15 
   192)       556.3  Rx         0281  7  01 00 00 00 00 00 00 
   193)       557.2  Rx         0382  7  00 00 00 00 00 00 00 
   194)       558.2  Rx         0481  8  01 00 02 00 00 00 2B B2 
   195)       559.2  Rx         0184  8  00 00 00 00 00 00 00 00 
   196)       560.2  Rx         0186  8  00 00 00 00 00 00 00 00 
   197)       561.0  Rx         0188  4  00 00 00 00 
   198)       561.9  Rx         0182  8  9C 00 00 00 00 00 00 00 
   199)       562.7  Rx         0189  4  00 00 00 00 
   200)       563.7  Rx         0181  8  00 00 00 00 00 00 00 00 
   201)       564.3  Rx         01A3  4  83 0D F4 01 
   202)       572.5  Rx         0717  1  05 
   203)       578.5  Rx         0730  1  05 
   204)       581.2  Rx         010B  6  00 00 00 00 00 00 
   205)       581.9  Rx         020B  5  04 01 00 00 01 
   206)       583.0  Rx         030B  8  18 00 00 00 00 00 00 00 
   207)       588.6  Rx         0197  4  FA 14 F4 01 
   208)       589.8  Rx         019E  4  F3 2F F4 01 
   209)       590.7  Rx         0185  8  FF FF FF FF FF FF FF FF 
   210)       591.4  Rx         01B0  4  82 0D F4 01 
   211)       592.1  Rx         0285  3  00 00 00 
   212)       593.0  Rx         0385  8  00 00 00 00 00 00 10 00 
   213)       594.1  Rx         0183  8  00 00 00 00 00 00 00 00 
   214)       604.5  Rx         0196  4  E8 2F F4 01 
   215)       613.3  Rx         01A3  4  83 0D F4 01 
   216)       614.3  Rx         01CB  8  00 00 00 00 00 00 D8 03 
   217)       615.1  Rx         02CB  4  00 00 1C 00 
   218)       615.8  Rx         03CB  5  01 00 00 00 00 
   219)       636.6  Rx         0383  8  4A 0D 01 00 4A 0D 01 00 
   220)       637.6  Rx         0384  8  00 00 00 00 08 00 00 00 
   221)       638.5  Rx         0386  8  4A 0D 01 00 4A 0D 01 00 
   222)       639.2  Rx         0197  4  FA 14 F4 01 
   223)       639.8  Rx         019E  4  F3 2F F4 01 
   224)       640.8  Rx         0387  8  00 00 00 00 08 00 00 00 
   225)       641.5  Rx         01B0  4  82 0D F4 01 
   226)       643.1  Rx         0185  8  FF FF FF FF FF FF FF FF 
   227)       643.8  Rx         0285  3  00 00 00 
   228)       644.7  Rx         0385  8  00 00 00 00 00 00 10 00 
   229)       645.8  Rx         0183  8  00 00 00 00 00 00 00 00 
   230)       654.5  Rx         0196  4  E8 2F F4 01 
   231)       663.4  Rx         01A3  4  83 0D F4 01 
   232)       670.2  Rx         01CB  8  00 00 00 00 00 00 D8 03 
   233)       670.9  Rx         02CB  4  00 00 1C 00 
   234)       671.6  Rx         03CB  5  01 00 00 00 00 
   235)       681.2  Rx         010B  6  00 00 00 00 00 00 
   236)       682.0  Rx         020B  5  04 01 00 00 01 
   237)       682.9  Rx         030B  8  18 00 00 00 00 00 00 00 
   238)       688.7  Rx         0197  4  FA 14 F4 01 
   239)       689.8  Rx         019E  4  F3 2F F4 01 
   240)       690.7  Rx         01B0  4  82 0D F4 01 
   241)       699.6  Rx         0185  8  FF FF FF FF FF FF FF FF 
   242)       700.3  Rx         0285  3  00 00 00 
   243)       701.2  Rx         0385  8  00 00 00 00 00 00 10 00 
   244)       702.3  Rx         0183  8  00 00 00 00 00 00 00 00 
   245)       704.5  Rx         0196  4  E8 2F F4 01 
   246)       713.4  Rx         01A3  4  83 0D F4 01 
   247)       726.2  Rx         01CB  8  00 00 00 00 00 00 D8 03 
   248)       726.6  Rx         071E  1  05 
   249)       727.3  Rx         02CB  4  00 00 1C 00 
   250)       728.1  Rx         03CB  5  01 00 00 00 00 
   251)       729.9  Rx         0701  1  05 
   252)       730.9  Rx         01CC  8  00 00 00 00 00 00 00 00 
   253)       731.9  Rx         02CC  8  C8 00 00 00 2C 01 00 00 
   254)       732.9  Rx         04CC  8  C8 00 00 00 2C 01 00 00 
   255)       733.8  Rx         03CC  7  00 00 10 00 00 04 00 
   256)       734.6  Rx         024C  4  00 00 00 00 
   257)       738.7  Rx         0197  4  FA 14 F4 01 
   258)       739.7  Rx         019E  4  F3 2F F4 01 
   259)       740.7  Rx         01B0  4  82 0D F4 01 
   260)       744.2  Rx         0716  1  05 
   261)       750.6  Rx         0185  8  FF FF FF FF FF FF FF FF 
   262)       751.2  Rx         0285  3  00 00 00 
   263)       752.2  Rx         0385  8  00 00 00 00 00 00 10 00 
   264)       752.7  Rx         0723  1  05 
   265)       753.7  Rx         0183  8  00 00 00 00 00 00 00 00 
   266)       754.4  Rx         0196  4  E8 2F F4 01 
   267)       763.4  Rx         01A3  4  83 0D F4 01 
   268)       781.2  Rx         010B  6  00 00 00 00 00 00 
   269)       781.9  Rx         020B  5  04 01 00 00 01 
   270)       782.9  Rx         01CB  8  00 00 00 00 00 00 D8 03 
   271)       783.9  Rx         030B  8  18 00 00 00 00 00 00 00 
   272)       784.6  Rx         02CB  4  00 00 1C 00 
   273)       785.4  Rx         03CB  5  01 00 00 00 00 
   274)       785.8  Rx         070B  1  05 
   275)       788.5  Rx         0197  4  FA 14 F4 01 
   276)       789.7  Rx         019E  4  F3 2F F4 01 
   277)       790.7  Rx         01B0  4  82 0D F4 01 
   278)       804.4  Rx         0196  4  E8 2F F4 01 
   279)       805.6  Rx         0185  8  FF FF FF FF FF FF FF FF 
   280)       806.3  Rx         0285  3  00 00 00 
   281)       807.3  Rx         0385  8  00 00 00 00 00 00 10 00 
   282)       808.3  Rx         0183  8  00 00 00 00 00 00 00 00 
   283)       813.4  Rx         01A3  4  83 0D F4 01 
   284)       814.7  Rx         0381  6  2D 16 10 0C 03 15 
   285)       815.6  Rx         0281  7  01 00 00 00 00 00 00 
   286)       816.6  Rx         0382  7  00 00 00 00 00 00 00 
   287)       817.6  Rx         0481  8  01 00 02 00 00 00 2B B2 
   288)       818.6  Rx         0184  8  00 00 00 00 00 00 00 00 
   289)       819.0  Rx         074B  1  05 
   290)       820.0  Rx         0186  8  00 00 00 00 00 00 00 00 
   291)       820.7  Rx         0188  4  00 00 00 00 
   292)       821.8  Rx         0182  8  9C 00 00 00 00 00 00 00 
   293)       822.5  Rx         0189  4  00 00 00 00 
   294)       822.9  Rx         0717  1  05 
   295)       823.9  Rx         0181  8  00 00 00 00 00 00 00 00 
   296)       828.5  Rx         0730  1  05 
   297)       838.6  Rx         0197  4  FA 14 F4 01 
   298)       839.7  Rx         019E  4  F3 2F F4 01 
   299)       840.7  Rx         01B0  4  82 0D F4 01 
   300)       841.7  Rx         01CB  8  00 00 00 00 00 00 D8 03 
   301)       842.4  Rx         02CB  4  00 00 1C 00 
   302)       843.1  Rx         03CB  5  01 00 00 00 00 
   303)       854.5  Rx         0196  4  E8 2F F4 01 
   304)       855.6  Rx         0185  8  FF FF FF FF FF FF FF FF 
   305)       856.3  Rx         0285  3  00 00 00 
   306)       857.3  Rx         0385  8  00 00 00 00 00 00 10 00 
   307)       858.3  Rx         0183  8  00 00 00 00 00 00 00 00 
   308)       863.4  Rx         01A3  4  83 0D F4 01 
   309)       881.2  Rx         010B  6  00 00 00 00 00 00 
   310)       881.9  Rx         020B  5  04 01 00 00 01 
   311)       883.0  Rx         030B  8  18 00 00 00 00 00 00 00 
   312)       888.7  Rx         0197  4  FA 14 F4 01 
   313)       889.7  Rx         019E  4  F3 2F F4 01 
   314)       890.7  Rx         01B0  4  82 0D F4 01 
   315)       897.2  Rx         01CB  8  00 00 00 00 00 00 D8 03 
   316)       897.9  Rx         02CB  4  00 00 1C 00 
   317)       898.7  Rx         03CB  5  01 00 00 00 00 
   318)       904.5  Rx         0196  4  E8 2F F4 01 
   319)       906.1  Rx         0185  8  FF FF FF FF FF FF FF FF 
   320)       906.7  Rx         0285  3  00 00 00 
   321)       907.7  Rx         0385  8  00 00 00 00 00 00 10 00 
   322)       908.7  Rx         0183  8  00 00 00 00 00 00 00 00 
   323)       913.4  Rx         01A3  4  83 0D F4 01 
   324)       938.5  Rx         0197  4  FA 14 F4 01 
   325)       939.7  Rx         019E  4  F3 2F F4 01 
   326)       940.7  Rx         01B0  4  82 0D F4 01 
   327)       953.2  Rx         01CB  8  00 00 00 00 00 00 D8 03 
   328)       953.9  Rx         02CB  4  00 00 1C 00 
   329)       954.6  Rx         0196  4  E8 2F F4 01 
   330)       955.4  Rx         03CB  5  01 00 00 00 00 
   331)       957.9  Rx         0185  8  FF FF FF FF FF FF FF FF 
   332)       958.5  Rx         0285  3  00 00 00 
   333)       959.5  Rx         0385  8  00 00 00 00 00 00 10 00 
   334)       960.6  Rx         0183  8  00 00 00 00 00 00 00 00 
   335)       963.3  Rx         01A3  4  83 0D F4 01 
   336)       976.4  Rx         071E  1  05 
   337)       981.1  Rx         010B  6  00 00 00 00 00 00 
   338)       981.8  Rx         020B  5  04 01 00 00 01 
   339)       982.9  Rx         030B  8  18 00 00 00 00 00 00 00 
   340)       983.3  Rx         0701  1  05 
   341)       984.4  Rx         01CC  8  00 00 00 00 00 00 00 00 
   342)       985.3  Rx         02CC  8  C8 00 00 00 2C 01 00 00 
   343)       986.3  Rx         04CC  8  C8 00 00 00 2C 01 00 00 
   344)       987.3  Rx         03CC  7  00 00 10 00 00 04 00 
   345)       988.0  Rx         024C  4  00 00 00 00 
   346)       988.6  Rx         0197  4  FA 14 F4 01 
   347)       989.7  Rx         019E  4  F3 2F F4 01 
   348)       990.6  Rx         01B0  4  82 0D F4 01 
   349)       994.2  Rx         0716  1  05 
   350)      1002.1  Rx         0723  1  05 
   351)      1004.4  Rx         0196  4  E8 2F F4 01 
   352)      1010.2  Rx         01CB  8  00 00 00 00 00 00 D8 03 
   353)      1010.9  Rx         02CB  4  00 00 1C 00 
   354)      1011.7  Rx         03CB  5  01 00 00 00 00 
   355)      1013.2  Rx         01A3  4  83 0D F4 01 
   356)      1014.9  Rx         0185  8  FF FF FF FF FF FF FF FF 
   357)      1015.5  Rx         0285  3  00 00 00 
   358)      1016.5  Rx         0385  8  00 00 00 00 00 00 10 00 
   359)      1017.5  Rx         0183  8  00 00 00 00 00 00 00 00 
   360)      1035.6  Rx         070B  1  05 
   361)      1038.4  Rx         0197  4  FA 14 F4 01 
   362)      1039.7  Rx         019E  4  F3 2F F4 01 
   363)      1040.6  Rx         01B0  4  82 0D F4 01 
   364)      1054.4  Rx         0196  4  E8 2F F4 01 
   365)      1063.3  Rx         01A3  4  83 0D F4 01 
   366)      1064.6  Rx         0381  6  2D 16 10 0C 03 15 
   367)      1065.6  Rx         0281  7  01 00 00 00 00 00 00 
   368)      1066.5  Rx         0382  7  00 00 00 00 00 00 00 
   369)      1067.5  Rx         0481  8  01 00 02 00 00 00 2B B2 
   370)      1068.5  Rx         0184  8  00 00 00 00 00 00 00 00 
   371)      1069.6  Rx         0186  8  00 00 00 00 00 00 00 00 
   372)      1070.2  Rx         0188  4  00 00 00 00 
   373)      1071.3  Rx         0182  8  9C 00 00 00 00 00 00 00 
   374)      1072.0  Rx         0189  4  00 00 00 00 
   375)      1072.4  Rx         0717  1  05 
   376)      1073.4  Rx         0181  8  00 00 00 00 00 00 00 00 
   377)      1074.4  Rx         0185  8  FF FF FF FF FF FF FF FF 
   378)      1075.1  Rx         0285  3  00 00 00 
   379)      1076.1  Rx         0385  8  00 00 00 00 00 00 10 00 
   380)      1077.1  Rx         0183  8  00 00 00 00 00 00 00 00 
   381)      1078.4  Rx         0730  1  05 
   382)      1079.6  Rx         01CB  8  00 00 00 00 00 00 D8 03 
   383)      1080.3  Rx         02CB  4  00 00 1C 00 
   384)      1081.1  Rx         010B  6  00 00 00 00 00 00 
   385)      1081.9  Rx         020B  5  04 01 00 00 01 
   386)      1082.9  Rx         030B  8  18 00 00 00 00 00 00 00 
   387)      1083.8  Rx         03CB  5  01 00 00 00 00 
   388)      1088.4  Rx         0197  4  FA 14 F4 01 
   389)      1089.7  Rx         019E  4  F3 2F F4 01 
   390)      1090.6  Rx         01B0  4  82 0D F4 01 
   391)      1093.5  Rx         074B  1  05 
   392)      1104.4  Rx         0196  4  E8 2F F4 01 
   393)      1113.3  Rx         01A3  4  83 0D F4 01 
   394)      1121.7  Rx         0185  8  FF FF FF FF FF FF FF FF 
   395)      1122.3  Rx         0285  3  00 00 00 
   396)      1123.3  Rx         0385  8  00 00 00 00 00 00 10 00 
   397)      1124.3  Rx         0183  8  00 00 00 00 00 00 00 00 
   398)      1137.1  Rx         01CB  8  00 00 00 00 00 00 D8 03 
   399)      1137.9  Rx         02CB  4  00 00 1C 00 
   400)      1138.5  Rx         0197  4  FA 14 F4 01 
   401)      1139.3  Rx         03CB  5  01 00 00 00 00 
   402)      1139.9  Rx         019E  4  F3 2F F4 01 
   403)      1140.6  Rx         01B0  4  82 0D F4 01 
   404)      1154.3  Rx         0196  4  E8 2F F4 01 
   405)      1163.3  Rx         01A3  4  83 0D F4 01 
   406)      1173.6  Rx         0185  8  FF FF FF FF FF FF FF FF 
   407)      1174.2  Rx         0285  3  00 00 00 
   408)      1175.2  Rx         0385  8  00 00 00 00 00 00 10 00 
   409)      1176.2  Rx         0183  8  00 00 00 00 00 00 00 00 
   410)      1181.1  Rx         010B  6  00 00 00 00 00 00 
   411)      1181.9  Rx         020B  5  04 01 00 00 01 
   412)      1182.8  Rx         030B  8  18 00 00 00 00 00 00 00 
   413)      1188.4  Rx         0197  4  FA 14 F4 01 
   414)      1189.6  Rx         019E  4  F3 2F F4 01 
   415)      1190.6  Rx         01B0  4  82 0D F4 01 
   416)      1193.2  Rx         01CB  8  00 00 00 00 00 00 D8 03 
   417)      1193.9  Rx         02CB  4  00 00 1C 00 
   418)      1194.7  Rx         03CB  5  01 00 00 00 00 
   419)      1204.3  Rx         0196  4  E8 2F F4 01 
   420)      1213.3  Rx         01A3  4  83 0D F4 01 
   421)      1226.4  Rx         071E  1  05 
   422)      1227.8  Rx         0185  8  FF FF FF FF FF FF FF FF 
   423)      1228.5  Rx         0285  3  00 00 00 
   424)      1229.4  Rx         0385  8  00 00 00 00 00 00 10 00 
   425)      1230.5  Rx         0183  8  00 00 00 00 00 00 00 00 
   426)      1235.8  Rx         0701  1  05 
   427)      1236.9  Rx         01CC  8  00 00 00 00 00 00 00 00 
   428)      1237.8  Rx         02CC  8  C8 00 00 00 2C 01 00 00 
   429)      1238.5  Rx         0197  4  FA 14 F4 01 
   430)      1239.5  Rx         04CC  8  C8 00 00 00 2C 01 00 00 
   431)      1240.1  Rx         019E  4  F3 2F F4 01 
   432)      1240.8  Rx         01B0  4  82 0D F4 01 
   433)      1241.7  Rx         03CC  7  00 00 10 00 00 04 00 
   434)      1242.4  Rx         024C  4  00 00 00 00 
   435)      1244.2  Rx         0716  1  05 
   436)      1250.2  Rx         01CB  8  00 00 00 00 00 00 D8 03 
   437)      1250.9  Rx         02CB  4  00 00 1C 00 
   438)      1251.7  Rx         03CB  5  01 00 00 00 00 
   439)      1252.1  Rx         0723  1  05 
   440)      1254.4  Rx         0196  4  E8 2F F4 01 
   441)      1263.3  Rx         01A3  4  83 0D F4 01 
   442)      1281.1  Rx         010B  6  00 00 00 00 00 00 
   443)      1282.0  Rx         0185  8  FF FF FF FF FF FF FF FF 
   444)      1282.8  Rx         020B  5  04 01 00 00 01 
   445)      1283.5  Rx         0285  3  00 00 00 
   446)      1284.4  Rx         030B  8  18 00 00 00 00 00 00 00 
   447)      1285.4  Rx         0385  8  00 00 00 00 00 00 10 00 
   448)      1285.9  Rx         070B  1  05 
   449)      1286.9  Rx         0183  8  00 00 00 00 00 00 00 00 
   450)      1288.4  Rx         0197  4  FA 14 F4 01 
   451)      1289.6  Rx         019E  4  F3 2F F4 01 
   452)      1290.6  Rx         01B0  4  82 0D F4 01 
   453)      1304.4  Rx         0196  4  E8 2F F4 01 
   454)      1308.2  Rx         01CB  8  00 00 00 00 00 00 D8 03 
   455)      1308.9  Rx         02CB  4  00 00 1C 00 
   456)      1309.6  Rx         03CB  5  01 00 00 00 00 
   457)      1313.2  Rx         01A3  4  83 0D F4 01 
   458)      1319.3  Rx         0381  6  2D 16 10 0C 03 15 
   459)      1320.3  Rx         0281  7  01 00 00 00 00 00 00 
   460)      1321.3  Rx         0382  7  00 00 00 00 00 00 00 
   461)      1322.2  Rx         0481  8  01 00 02 00 00 00 2B B2 
   462)      1322.7  Rx         0717  1  05 
   463)      1323.7  Rx         0184  8  00 00 00 00 00 00 00 00 
   464)      1324.7  Rx         0186  8  00 00 00 00 00 00 00 00 
   465)      1325.4  Rx         0188  4  00 00 00 00 
   466)      1326.4  Rx         0182  8  9C 00 00 00 00 00 00 00 
   467)      1327.1  Rx         0189  4  00 00 00 00 
   468)      1328.2  Rx         0181  8  00 00 00 00 00 00 00 00 
   469)      1328.6  Rx         0730  1  05 
   470)      1336.8  Rx         0185  8  FF FF FF FF FF FF FF FF 
   471)      1337.4  Rx         0285  3  00 00 00 
   472)      1338.4  Rx         0385  8  00 00 00 00 00 00 10 00 
   473)      1339.0  Rx         0197  4  FA 14 F4 01 
   474)      1340.1  Rx         0183  8  00 00 00 00 00 00 00 00 
   475)      1340.7  Rx         019E  4  F3 2F F4 01 
   476)      1341.4  Rx         01B0  4  82 0D F4 01 
   477)      1354.4  Rx         0196  4  E8 2F F4 01 
   478)      1363.2  Rx         01A3  4  83 0D F4 01 
   479)      1364.3  Rx         01CB  8  00 00 00 00 00 00 D8 03 
   480)      1364.9  Rx         02CB  4  00 00 1C 00 
   481)      1365.7  Rx         03CB  5  01 00 00 00 00 
   482)      1373.6  Rx         074B  1  05 
   483)      1381.1  Rx         010B  6  00 00 00 00 00 00 
   484)      1381.8  Rx         020B  5  04 01 00 00 01 
   485)      1382.9  Rx         030B  8  18 00 00 00 00 00 00 00 
   486)      1388.4  Rx         0197  4  FA 14 F4 01 
   487)      1389.6  Rx         019E  4  F3 2F F4 01 
   488)      1390.6  Rx         0185  8  FF FF FF FF FF FF FF FF 
   489)      1391.3  Rx         01B0  4  82 0D F4 01 
   490)      1391.9  Rx         0285  3  00 00 00 
   491)      1392.9  Rx         0385  8  00 00 00 00 00 00 10 00 
   492)      1393.9  Rx         0183  8  00 00 00 00 00 00 00 00 
   493)      1404.4  Rx         0196  4  E8 2F F4 01 
   494)      1413.2  Rx         01A3  4  83 0D F4 01 
   495)      1420.2  Rx         01CB  8  00 00 00 00 00 00 D8 03 
   496)      1420.9  Rx         02CB  4  00 00 1C 00 
   497)      1421.7  Rx         03CB  5  01 00 00 00 00 
   498)      1438.3  Rx         0197  4  FA 14 F4 01 
   499)      1439.9  Rx         0185  8  FF FF FF FF FF FF FF FF 
   500)      1440.6  Rx         019E  4  F3 2F F4 01 
   501)      1441.2  Rx         01B0  4  82 0D F4 01 
   502)      1443.0  Rx         0285  3  00 00 00 
   503)      1444.0  Rx         0385  8  00 00 00 00 00 00 10 00 
   504)      1445.0  Rx         0183  8  00 00 00 00 00 00 00 00 
   505)      1454.4  Rx         0196  4  E8 2F F4 01 
   506)      1463.2  Rx         01A3  4  83 0D F4 01 
   507)      1476.4  Rx         071E  1  05 
   508)      1477.4  Rx         01CB  8  00 00 00 00 00 00 D8 03 
   509)      1478.1  Rx         02CB  4  00 00 1C 00 
   510)      1478.9  Rx         03CB  5  01 00 00 00 00 
   511)      1481.1  Rx         010B  6  00 00 00 00 00 00 
   512)      1481.8  Rx         020B  5  04 01 00 00 01 
   513)      1482.9  Rx         030B  8  18 00 00 00 00 00 00 00 
   514)      1488.3  Rx         0197  4  FA 14 F4 01 
   515)      1489.1  Rx         0701  1  05 
   516)      1489.8  Rx         019E  4  F3 2F F4 01 
   517)      1490.8  Rx         01CC  8  00 00 00 00 00 00 00 00 
   518)      1491.5  Rx         01B0  4  82 0D F4 01 
   519)      1492.5  Rx         02CC  8  C8 00 00 00 2C 01 00 00 
   520)      1493.5  Rx         04CC  8  C8 00 00 00 2C 01 00 00 
   521)      1494.4  Rx         03CC  7  00 00 10 00 00 04 00 
   522)      1494.9  Rx         0716  1  05 
   523)      1495.8  Rx         0185  8  FF FF FF FF FF FF FF FF 
   524)      1496.5  Rx         0285  3  00 00 00 
   525)      1497.5  Rx         0385  8  00 00 00 00 00 00 10 00 
   526)      1498.5  Rx         0183  8  00 00 00 00 00 00 00 00 
   527)      1499.2  Rx         024C  4  00 00 00 00 
   528)      1502.0  Rx         0723  1  05 
   529)      1504.3  Rx         0196  4  E8 2F F4 01 
   530)      1513.3  Rx         01A3  4  83 0D F4 01 
   531)      1523.7  Rx         0773  1  05 
   532)      1534.2  Rx         01CB  8  00 00 00 00 00 00 D8 03 
   533)      1534.9  Rx         02CB  4  00 00 1C 00 
   534)      1535.7  Rx         03CB  5  01 00 00 00 00 
   535)      1536.2  Rx         070B  1  05 
   536)      1538.3  Rx         0197  4  FA 14 F4 01 
   537)      1539.6  Rx         019E  4  F3 2F F4 01 
   538)      1540.6  Rx         01B0  4  82 0D F4 01 
   539)      1546.6  Rx         0185  8  FF FF FF FF FF FF FF FF 
   540)      1547.3  Rx         0285  3  00 00 00 
   541)      1548.2  Rx         0385  8  00 00 00 00 00 00 10 00 
   542)      1549.3  Rx         0183  8  00 00 00 00 00 00 00 00 
   543)      1554.3  Rx         0196  4  E8 2F F4 01 
   544)      1563.3  Rx         01A3  4  83 0D F4 01 
   545)      1572.0  Rx         0717  1  05 
   546)      1573.3  Rx         0381  6  2D 16 10 0C 03 15 
   547)      1574.2  Rx         0281  7  01 00 00 00 00 00 00 
   548)      1575.2  Rx         0382  7  00 00 00 00 00 00 00 
   549)      1576.1  Rx         0481  8  01 00 02 00 00 00 2B B2 
   550)      1577.2  Rx         0184  8  00 00 00 00 00 00 00 00 
   551)      1578.2  Rx         0186  8  00 00 00 00 00 00 00 00 
   552)      1578.7  Rx         0730  1  05 
   553)      1579.3  Rx         0188  4  00 00 00 00 
   554)      1580.4  Rx         0182  8  9C 00 00 00 00 00 00 00 
   555)      1581.2  Rx         010B  6  00 00 00 00 00 00 
   556)      1581.9  Rx         0189  4  00 00 00 00 
   557)      1582.6  Rx         020B  5  04 01 00 00 01 
   558)      1583.6  Rx         0181  8  00 00 00 00 00 00 00 00 
   559)      1584.6  Rx         030B  8  18 00 00 00 00 00 00 00 
   560)      1588.3  Rx         0197  4  FA 14 F4 01 
   561)      1589.6  Rx         019E  4  F3 2F F4 01 
   562)      1590.6  Rx         01B0  4  82 0D F4 01 
   563)      1591.6  Rx         01CB  8  00 00 00 00 00 00 D8 03 
   564)      1592.3  Rx         02CB  4  00 00 1C 00 
   565)      1593.0  Rx         03CB  5  01 00 00 00 00 
   566)      1597.1  Rx         0185  8  FF FF FF FF FF FF FF FF 
   567)      1597.7  Rx         0285  3  00 00 00 
   568)      1598.8  Rx         0385  8  00 00 00 00 00 00 10 00 
   569)      1599.8  Rx         0183  8  00 00 00 00 00 00 00 00 
   570)      1604.3  Rx         0196  4  E8 2F F4 01 
   571)      1613.3  Rx         01A3  4  83 0D F4 01 
   572)      1638.3  Rx         0197  4  FA 14 F4 01 
   573)      1639.6  Rx         019E  4  F3 2F F4 01 
   574)      1640.6  Rx         01B0  4  82 0D F4 01 
   575)      1643.6  Rx         0383  8  4B 0D 01 00 4B 0D 01 00 
   576)      1644.6  Rx         0384  8  00 00 00 00 08 00 00 00 
   577)      1645.6  Rx         0386  8  4B 0D 01 00 4B 0D 01 00 
   578)      1646.6  Rx         0387  8  00 00 00 00 08 00 00 00 
   579)      1648.2  Rx         01CB  8  00 00 00 00 00 00 D8 03 
   580)      1648.9  Rx         02CB  4  00 00 1C 00 
   581)      1649.7  Rx         03CB  5  01 00 00 00 00 
   582)      1652.6  Rx         0185  8  FF FF FF FF FF FF FF FF 
   583)      1653.0  Rx         074B  1  05 
   584)      1653.7  Rx         0285  3  00 00 00 
   585)      1654.6  Rx         0385  8  00 00 00 00 00 00 10 00 
   586)      1655.3  Rx         0196  4  E8 2F F4 01 
   587)      1656.3  Rx         0183  8  00 00 00 00 00 00 00 00 
   588)      1663.2  Rx         01A3  4  83 0D F4 01 
   589)      1681.1  Rx         010B  6  00 00 00 00 00 00 
   590)      1681.8  Rx         020B  5  04 01 00 00 01 
   591)      1682.8  Rx         030B  8  18 00 00 00 00 00 00 00 
   592)      1688.3  Rx         0197  4  FA 14 F4 01 
   593)      1689.6  Rx         019E  4  F3 2F F4 01 
   594)      1690.6  Rx         01B0  4  82 0D F4 01 
   595)      1704.4  Rx         0196  4  E8 2F F4 01 
   596)      1706.0  Rx         0185  8  FF FF FF FF FF FF FF FF 
   597)      1706.6  Rx         0285  3  00 00 00 
   598)      1707.6  Rx         0385  8  00 00 00 00 00 00 10 00 
   599)      1708.6  Rx         0183  8  00 00 00 00 00 00 00 00 
   600)      1710.2  Rx         01CB  8  00 00 00 00 00 00 D8 03 
   601)      1712.0  Rx         02CB  4  00 00 1C 00 
   602)      1713.2  Rx         01A3  4  83 0D F4 01 
   603)      1714.0  Rx         03CB  5  01 00 00 00 00 
   604)      1726.4  Rx         071E  1  05 
   605)      1738.3  Rx         0197  4  FA 14 F4 01 
   606)      1739.6  Rx         019E  4  F3 2F F4 01 
   607)      1740.6  Rx         01B0  4  82 0D F4 01 
   608)      1741.5  Rx         0701  1  05 
   609)      1742.5  Rx         01CC  8  00 00 00 00 00 00 00 00 
   610)      1743.5  Rx         02CC  8  C8 00 00 00 2C 01 00 00 
   611)      1744.5  Rx         04CC  8  C8 00 00 00 2C 01 00 00 
   612)      1744.9  Rx         0716  1  05 
   613)      1745.8  Rx         03CC  7  00 00 10 00 00 04 00 
   614)      1746.5  Rx         024C  4  00 00 00 00 
   615)      1752.1  Rx         0723  1  05 
   616)      1754.4  Rx         0196  4  E8 2F F4 01 
   617)      1756.0  Rx         0185  8  FF FF FF FF FF FF FF FF 
   618)      1756.6  Rx         0285  3  00 00 00 
   619)      1757.6  Rx         0385  8  00 00 00 00 00 00 10 00 
   620)      1758.6  Rx         0183  8  00 00 00 00 00 00 00 00 
   621)      1763.2  Rx         01A3  4  83 0D F4 01 
   622)      1773.3  Rx         01CB  8  00 00 00 00 00 00 D8 03 
   623)      1774.0  Rx         02CB  4  00 00 1C 00 
   624)      1774.8  Rx         03CB  5  01 00 00 00 00 
   625)      1781.1  Rx         010B  6  00 00 00 00 00 00 
   626)      1781.8  Rx         020B  5  04 01 00 00 01 
   627)      1782.9  Rx         030B  8  18 00 00 00 00 00 00 00 
   628)      1785.6  Rx         070B  1  05 
   629)      1788.4  Rx         0197  4  FA 14 F4 01 
   630)      1789.6  Rx         019E  4  F3 2F F4 01 
   631)      1790.6  Rx         01B0  4  82 0D F4 01 
   632)      1804.4  Rx         0196  4  E8 2F F4 01 
   633)      1806.0  Rx         0185  8  FF FF FF FF FF FF FF FF 
   634)      1806.6  Rx         0285  3  00 00 00 
   635)      1807.6  Rx         0385  8  00 00 00 00 00 00 10 00 
   636)      1808.6  Rx         0183  8  00 00 00 00 00 00 00 00 
   637)      1813.2  Rx         01A3  4  83 0D F4 01 
   638)      1822.2  Rx         0717  1  05 
   639)      1823.4  Rx         0381  6  2D 16 10 0C 03 15 
   640)      1824.3  Rx         0281  7  01 00 00 00 00 00 00 
   641)      1825.3  Rx         0382  7  00 00 00 00 00 00 00 
   642)      1826.2  Rx         0481  8  01 00 02 00 00 00 2B B2 
   643)      1827.3  Rx         0184  8  00 00 00 00 00 00 00 00 
   644)      1828.3  Rx         0186  8  00 00 00 00 00 00 00 00 
   645)      1828.8  Rx         0730  1  05 
   646)      1829.4  Rx         0188  4  00 00 00 00 
   647)      1830.5  Rx         0182  8  9C 00 00 00 00 00 00 00 
   648)      1831.2  Rx         0189  4  00 00 00 00 
   649)      1832.2  Rx         0181  8  00 00 00 00 00 00 00 00 
   650)      1835.5  Rx         01CB  8  00 00 00 00 00 00 D8 03 
   651)      1836.2  Rx         02CB  4  00 00 1C 00 
   652)      1837.0  Rx         03CB  5  01 00 00 00 00 
   653)      1838.2  Rx         0197  4  FA 14 F4 01 
   654)      1839.6  Rx         019E  4  F3 2F F4 01 
   655)      1840.6  Rx         01B0  4  82 0D F4 01 
   656)      1854.3  Rx         0196  4  E8 2F F4 01 
   657)      1855.9  Rx         0185  8  FF FF FF FF FF FF FF FF 
   658)      1856.6  Rx         0285  3  00 00 00 
   659)      1857.6  Rx         0385  8  00 00 00 00 00 00 10 00 
   660)      1858.6  Rx         0183  8  00 00 00 00 00 00 00 00 
   661)      1863.2  Rx         01A3  4  83 0D F4 01 
   662)      1881.1  Rx         010B  6  00 00 00 00 00 00 
   663)      1881.8  Rx         020B  5  04 01 00 00 01 
   664)      1882.8  Rx         030B  8  18 00 00 00 00 00 00 00 
   665)      1888.2  Rx         0197  4  FA 14 F4 01 
   666)      1889.6  Rx         019E  4  F3 2F F4 01 
   667)      1890.6  Rx         01CB  8  00 00 00 00 00 00 D8 03 
   668)      1891.3  Rx         01B0  4  82 0D F4 01 
   669)      1892.0  Rx         02CB  4  00 00 1C 00 
   670)      1892.7  Rx         03CB  5  01 00 00 00 00 
   671)      1904.3  Rx         0196  4  E8 2F F4 01 
   672)      1911.7  Rx         0185  8  FF FF FF FF FF FF FF FF 
   673)      1912.3  Rx         0285  3  00 00 00 
   674)      1913.3  Rx         0385  8  00 00 00 00 00 00 10 00 
   675)      1914.0  Rx         01A3  4  83 0D F4 01 
   676)      1915.0  Rx         0183  8  00 00 00 00 00 00 00 00 
   677)      1936.7  Rx         074B  1  05 
   678)      1938.3  Rx         0197  4  FA 14 F4 01 
   679)      1939.6  Rx         019E  4  F3 2F F4 01 
   680)      1940.6  Rx         01B0  4  82 0D F4 01 
   681)      1947.3  Rx         01CB  8  00 00 00 00 00 00 D8 03 
   682)      1948.0  Rx         02CB  4  00 00 1C 00 
   683)      1948.8  Rx         03CB  5  01 00 00 00 00 
   684)      1954.3  Rx         0196  4  E8 2F F4 01 
   685)      1963.2  Rx         01A3  4  83 0D F4 01 
   686)      1965.0  Rx         0185  8  FF FF FF FF FF FF FF FF 
   687)      1965.6  Rx         0285  3  00 00 00 
   688)      1966.6  Rx         0385  8  00 00 00 00 00 00 10 00 
   689)      1967.6  Rx         0183  8  00 00 00 00 00 00 00 00 
   690)      1976.4  Rx         071E  1  05 
   691)      1981.0  Rx         010B  6  00 00 00 00 00 00 
   692)      1981.9  Rx         020B  5  04 01 00 00 01 
   693)      1982.8  Rx         030B  8  18 00 00 00 00 00 00 00 
   694)      1988.2  Rx         0197  4  FA 14 F4 01 
   695)      1989.6  Rx         019E  4  F3 2F F4 01 
   696)      1990.6  Rx         01B0  4  82 0D F4 01 
   697)      1994.1  Rx         0716  1  05 
   698)      1994.8  Rx         0701  1  05 
   699)      1995.8  Rx         01CC  8  00 00 00 00 00 00 00 00 
   700)      1996.8  Rx         02CC  8  C8 00 00 00 2C 01 00 00 
   701)      1997.8  Rx         04CC  8  C8 00 00 00 2C 01 00 00 
   702)      1998.7  Rx         03CC  7  00 00 10 00 00 04 00 
   703)      1999.4  Rx         024C  4  00 00 00 00 
   704)      2002.0  Rx         0723  1  05 
   705)      2004.3  Rx         0196  4  E8 2F F4 01 
   706)      2007.3  Rx         01CB  8  00 00 00 00 00 00 D8 03 
   707)      2008.0  Rx         02CB  4  00 00 1C 00 
   708)      2008.8  Rx         03CB  5  01 00 00 00 00 
   709)      2013.3  Rx         01A3  4  83 0D F4 01 
   710)      2019.7  Rx         0185  8  FF FF FF FF FF FF FF FF 
   711)      2020.3  Rx         0285  3  00 00 00 
   712)      2021.3  Rx         0385  8  00 00 00 00 00 00 10 00 
   713)      2022.3  Rx         0183  8  00 00 00 00 00 00 00 00 
   714)      2035.6  Rx         070B  1  05 
   715)      2038.2  Rx         0197  4  FA 14 F4 01 
   716)      2039.7  Rx         019E  4  F3 2F F4 01 
   717)      2040.6  Rx         01B0  4  82 0D F4 01 
   718)      2054.4  Rx         0196  4  E8 2F F4 01 
   719)      2063.3  Rx         01A3  4  83 0D F4 01 
   720)      2064.4  Rx         01CB  8  00 00 00 00 00 00 D8 03 
   721)      2065.0  Rx         02CB  4  00 00 1C 00 
   722)      2065.8  Rx         03CB  5  01 00 00 00 00 
   723)      2071.6  Rx         0185  8  FF FF FF FF FF FF FF FF 
   724)      2072.0  Rx         0717  1  05 
   725)      2072.7  Rx         0285  3  00 00 00 
   726)      2073.7  Rx         0385  8  00 00 00 00 00 00 10 00 
   727)      2074.7  Rx         0183  8  00 00 00 00 00 00 00 00 
   728)      2077.5  Rx         0381  6  2F 16 10 0C 03 15 
   729)      2078.4  Rx         0281  7  01 00 00 00 00 00 00 
   730)      2078.9  Rx         0730  1  05 
   731)      2079.8  Rx         0382  7  00 00 00 00 00 00 00 
   732)      2080.8  Rx         0481  8  01 00 02 00 00 00 2B B2 
   733)      2081.6  Rx         010B  6  00 00 00 00 00 00 
   734)      2082.6  Rx         0184  8  00 00 00 00 00 00 00 00 
   735)      2083.4  Rx         020B  5  04 01 00 00 01 
   736)      2084.4  Rx         0186  8  00 00 00 00 00 00 00 00 
   737)      2085.4  Rx         030B  8  18 00 00 00 00 00 00 00 
   738)      2086.1  Rx         0188  4  00 00 00 00 
   739)      2087.1  Rx         0182  8  9C 00 00 00 00 00 00 00 
   740)      2087.8  Rx         0189  4  00 00 00 00 
   741)      2088.5  Rx         0197  4  FA 14 F4 01 
   742)      2089.4  Rx         0181  8  00 00 00 00 00 00 00 00 
   743)      2090.1  Rx         019E  4  F3 2F F4 01 
   744)      2090.8  Rx         01B0  4  82 0D F4 01 
   745)      2104.4  Rx         0196  4  E8 2F F4 01 
   746)      2113.2  Rx         01A3  4  83 0D F4 01 
   747)      2121.4  Rx         01CB  8  00 00 00 00 00 00 D8 03 
   748)      2122.0  Rx         02CB  4  00 00 1C 00 
   749)      2122.8  Rx         03CB  5  01 00 00 00 00 
   750)      2125.7  Rx         0185  8  FF FF FF FF FF FF FF FF 
   751)      2126.3  Rx         0285  3  00 00 00 
   752)      2127.3  Rx         0385  8  00 00 00 00 00 00 10 00 
   753)      2128.3  Rx         0183  8  00 00 00 00 00 00 00 00 
   754)      2138.2  Rx         0197  4  FA 14 F4 01 
   755)      2139.6  Rx         019E  4  F3 2F F4 01 
   756)      2140.6  Rx         01B0  4  82 0D F4 01 
   757)      2154.4  Rx         0196  4  E8 2F F4 01 
   758)      2163.3  Rx         01A3  4  83 0D F4 01 
   759)      2177.4  Rx         01CB  8  00 00 00 00 00 00 D8 03 
   760)      2178.1  Rx         02CB  4  00 00 1C 00 
   761)      2178.9  Rx         03CB  5  01 00 00 00 00 
   762)      2181.1  Rx         010B  6  00 00 00 00 00 00 
   763)      2182.1  Rx         0185  8  FF FF FF FF FF FF FF FF 
   764)      2182.8  Rx         020B  5  04 01 00 00 01 
   765)      2183.5  Rx         0285  3  00 00 00 
   766)      2184.5  Rx         030B  8  18 00 00 00 00 00 00 00 
   767)      2185.4  Rx         0385  8  00 00 00 00 00 00 10 00 
   768)      2186.5  Rx         0183  8  00 00 00 00 00 00 00 00 
   769)      2188.2  Rx         0197  4  FA 14 F4 01 
   770)      2189.7  Rx         019E  4  F3 2F F4 01 
   771)      2190.6  Rx         01B0  4  82 0D F4 01 
   772)      2204.4  Rx         0196  4  E8 2F F4 01 
   773)      2213.3  Rx         01A3  4  83 0D F4 01 
   774)      2217.8  Rx         074B  1  05 
   775)      2226.4  Rx         071E  1  05 
   776)      2232.7  Rx         0185  8  FF FF FF FF FF FF FF FF 
   777)      2233.7  Rx         01CB  8  00 00 00 00 00 00 D8 03 
   778)      2234.3  Rx         0285  3  00 00 00 
   779)      2235.0  Rx         02CB  4  00 00 1C 00 
   780)      2236.0  Rx         0385  8  00 00 00 00 00 00 10 00 
   781)      2237.0  Rx         0183  8  00 00 00 00 00 00 00 00 
   782)      2238.2  Rx         0197  4  FA 14 F4 01 
   783)      2239.6  Rx         019E  4  F3 2F F4 01 
   784)      2240.6  Rx         01B0  4  82 0D F4 01 
   785)      2241.4  Rx         03CB  5  01 00 00 00 00 
   786)      2244.1  Rx         0716  1  05 
   787)      2252.0  Rx         0723  1  05 
   788)      2252.7  Rx         0701  1  05 
   789)      2253.7  Rx         01CC  8  00 00 00 00 00 00 00 00 
   790)      2254.4  Rx         0196  4  E8 2F F4 01 
   791)      2255.4  Rx         02CC  8  C8 00 00 00 2C 01 00 00 
   792)      2256.4  Rx         04CC  8  C8 00 00 00 2C 01 00 00 
   793)      2257.2  Rx         03CC  7  00 00 10 00 00 04 00 
   794)      2258.0  Rx         024C  4  00 00 00 00 
   795)      2263.3  Rx         01A3  4  83 0D F4 01 
   796)      2281.1  Rx         010B  6  00 00 00 00 00 00 
   797)      2281.9  Rx         020B  5  04 01 00 00 01 
   798)      2282.9  Rx         030B  8  18 00 00 00 00 00 00 00 
   799)      2285.6  Rx         0185  8  FF FF FF FF FF FF FF FF 
   800)      2286.0  Rx         070B  1  05 
   801)      2286.6  Rx         0285  3  00 00 00 
   802)      2287.6  Rx         0385  8  00 00 00 00 00 00 10 00 
   803)      2288.3  Rx         0197  4  FA 14 F4 01 
   804)      2289.3  Rx         0183  8  00 00 00 00 00 00 00 00 
   805)      2289.9  Rx         019E  4  F3 2F F4 01 
   806)      2290.6  Rx         01B0  4  82 0D F4 01 
   807)      2297.4  Rx         01CB  8  00 00 00 00 00 00 D8 03 
   808)      2298.1  Rx         02CB  4  00 00 1C 00 
   809)      2298.8  Rx         03CB  5  01 00 00 00 00 
   810)      2304.4  Rx         0196  4  E8 2F F4 01 
   811)      2313.3  Rx         01A3  4  83 0D F4 01 
   812)      2322.0  Rx         0717  1  05 
   813)      2328.5  Rx         0381  6  2F 16 10 0C 03 15 
   814)      2329.0  Rx         0730  1  05 
   815)      2329.9  Rx         0281  7  01 00 00 00 00 00 00 
   816)      2330.8  Rx         0382  7  00 00 00 00 00 00 00 
   817)      2331.8  Rx         0481  8  01 00 02 00 00 00 2B B2 
   818)      2332.8  Rx         0184  8  00 00 00 00 00 00 00 00 
   819)      2333.8  Rx         0186  8  00 00 00 00 00 00 00 00 
   820)      2334.6  Rx         0188  4  00 00 00 00 
   821)      2335.5  Rx         0182  8  9C 00 00 00 00 00 00 00 
   822)      2336.3  Rx         0189  4  00 00 00 00 
   823)      2337.3  Rx         0181  8  00 00 00 00 00 00 00 00 
   824)      2338.3  Rx         0185  8  FF FF FF FF FF FF FF FF 
   825)      2339.0  Rx         0197  4  FA 14 F4 01 
   826)      2339.6  Rx         0285  3  00 00 00 
   827)      2340.2  Rx         019E  4  F3 2F F4 01 
   828)      2340.9  Rx         01B0  4  82 0D F4 01 
   829)      2341.9  Rx         0385  8  00 00 00 00 00 00 10 00 
   830)      2342.9  Rx         0183  8  00 00 00 00 00 00 00 00 
   831)      2354.4  Rx         0196  4  E8 2F F4 01 
   832)      2356.4  Rx         01CB  8  00 00 00 00 00 00 D8 03 
   833)      2357.1  Rx         02CB  4  00 00 1C 00 
   834)      2357.9  Rx         03CB  5  01 00 00 00 00 
   835)      2363.3  Rx         01A3  4  83 0D F4 01 
   836)      2381.1  Rx         010B  6  00 00 00 00 00 00 
   837)      2381.9  Rx         020B  5  04 01 00 00 01 
   838)      2382.9  Rx         030B  8  18 00 00 00 00 00 00 00 
   839)      2388.1  Rx         0197  4  FA 14 F4 01 
   840)      2389.9  Rx         0185  8  FF FF FF FF FF FF FF FF 
   841)      2390.5  Rx         019E  4  F3 2F F4 01 
   842)      2391.2  Rx         01B0  4  82 0D F4 01 
   843)      2392.1  Rx         0285  3  00 00 00 
   844)      2393.1  Rx         0385  8  00 00 00 00 00 00 10 00 
   845)      2394.2  Rx         0183  8  00 00 00 00 00 00 00 00 
   846)      2404.4  Rx         0196  4  E8 2F F4 01 
   847)      2413.2  Rx         01A3  4  83 0D F4 01 
   848)      2416.4  Rx         01CB  8  00 00 00 00 00 00 D8 03 
   849)      2417.1  Rx         02CB  4  00 00 1C 00 
   850)      2417.9  Rx         03CB  5  01 00 00 00 00 
   851)      2438.2  Rx         0197  4  FA 14 F4 01 
   852)      2439.6  Rx         019E  4  F3 2F F4 01 
   853)      2440.6  Rx         01B0  4  82 0D F4 01 
   854)      2441.6  Rx         0185  8  FF FF FF FF FF FF FF FF 
   855)      2442.2  Rx         0285  3  00 00 00 
   856)      2443.2  Rx         0385  8  00 00 00 00 00 00 10 00 
   857)      2444.2  Rx         0183  8  00 00 00 00 00 00 00 00 
   858)      2454.4  Rx         0196  4  E8 2F F4 01 
   859)      2463.2  Rx         01A3  4  83 0D F4 01 
   860)      2475.4  Rx         01CB  8  00 00 00 00 00 00 D8 03 
   861)      2476.1  Rx         02CB  4  00 00 1C 00 
   862)      2476.6  Rx         071E  1  05 
   863)      2477.3  Rx         03CB  5  01 00 00 00 00 
   864)      2481.1  Rx         010B  6  00 00 00 00 00 00 
   865)      2481.8  Rx         020B  5  04 01 00 00 01 
   866)      2482.9  Rx         030B  8  18 00 00 00 00 00 00 00 
   867)      2488.3  Rx         0197  4  FA 14 F4 01 
   868)      2489.6  Rx         019E  4  F3 2F F4 01 
   869)      2490.6  Rx         01B0  4  82 0D F4 01 
   870)      2493.7  Rx         0185  8  FF FF FF FF FF FF FF FF 
   871)      2494.2  Rx         0716  1  05 
   872)      2494.8  Rx         0285  3  00 00 00 
   873)      2495.8  Rx         0385  8  00 00 00 00 00 00 10 00 
   874)      2496.8  Rx         0183  8  00 00 00 00 00 00 00 00 
   875)      2497.3  Rx         074B  1  05 
   876)      2502.1  Rx         0723  1  05 
   877)      2504.4  Rx         0196  4  E8 2F F4 01 
   878)      2505.3  Rx         0701  1  05 
   879)      2506.3  Rx         01CC  8  00 00 00 00 00 00 00 00 
   880)      2507.3  Rx         02CC  8  C8 00 00 00 2C 01 00 00 
   881)      2508.3  Rx         04CC  8  C8 00 00 00 2C 01 00 00 
   882)      2509.2  Rx         03CC  7  00 00 10 00 00 04 00 
   883)      2510.0  Rx         024C  4  00 00 00 00 
   884)      2513.2  Rx         01A3  4  83 0D F4 01 
   885)      2532.4  Rx         01CB  8  00 00 00 00 00 00 D8 03 
   886)      2533.1  Rx         02CB  4  00 00 1C 00 
   887)      2533.9  Rx         03CB  5  01 00 00 00 00 
   888)      2535.6  Rx         070B  1  05 
   889)      2538.1  Rx         0197  4  FA 14 F4 01 
   890)      2539.6  Rx         019E  4  F3 2F F4 01 
   891)      2540.6  Rx         01B0  4  82 0D F4 01 
   892)      2546.8  Rx         0185  8  FF FF FF FF FF FF FF FF 
   893)      2547.4  Rx         0285  3  00 00 00 
   894)      2548.4  Rx         0385  8  00 00 00 00 00 00 10 00 
   895)      2549.4  Rx         0183  8  00 00 00 00 00 00 00 00 
   896)      2554.4  Rx         0196  4  E8 2F F4 01 
   897)      2563.2  Rx         01A3  4  83 0D F4 01 
   898)      2571.9  Rx         0717  1  05 
   899)      2578.4  Rx         0730  1  05 
   900)      2579.6  Rx         0381  6  2F 16 10 0C 03 15 
   901)      2580.5  Rx         0281  7  01 00 00 00 00 00 00 
   902)      2581.3  Rx         010B  6  00 00 00 00 00 00 
   903)      2582.3  Rx         0382  7  00 00 00 00 00 00 00 
   904)      2583.0  Rx         020B  5  04 01 00 00 01 
   905)      2584.0  Rx         0481  8  01 00 02 00 00 00 2B B2 
   906)      2585.0  Rx         030B  8  18 00 00 00 00 00 00 00 
   907)      2586.0  Rx         0184  8  00 00 00 00 00 00 00 00 
   908)      2587.0  Rx         0186  8  00 00 00 00 00 00 00 00 
   909)      2587.7  Rx         0188  4  00 00 00 00 
   910)      2588.4  Rx         0197  4  FA 14 F4 01 
   911)      2589.4  Rx         0182  8  9C 00 00 00 00 00 00 00 
   912)      2590.0  Rx         019E  4  F3 2F F4 01 
   913)      2590.7  Rx         0189  4  00 00 00 00 
   914)      2591.4  Rx         01B0  4  82 0D F4 01 
   915)      2592.4  Rx         0181  8  00 00 00 00 00 00 00 00 
   916)      2593.5  Rx         01CB  8  00 00 00 00 00 00 D8 03 
   917)      2594.2  Rx         02CB  4  00 00 1C 00 
   918)      2594.9  Rx         03CB  5  01 00 00 00 00 
   919)      2597.8  Rx         0185  8  FF FF FF FF FF FF FF FF 
   920)      2598.4  Rx         0285  3  00 00 00 
   921)      2599.4  Rx         0385  8  00 00 00 00 00 00 10 00 
   922)      2600.5  Rx         0183  8  00 00 00 00 00 00 00 00 
   923)      2604.3  Rx         0196  4  E8 2F F4 01 
   924)      2613.3  Rx         01A3  4  83 0D F4 01 
   925)      2638.2  Rx         0197  4  FA 14 F4 01 
   926)      2639.6  Rx         019E  4  F3 2F F4 01 
   927)      2640.6  Rx         01B0  4  82 0D F4 01 
   928)      2647.8  Rx         0185  8  FF FF FF FF FF FF FF FF 
   929)      2648.8  Rx         01CB  8  00 00 00 00 00 00 D8 03 
   930)      2649.3  Rx         0285  3  00 00 00 
   931)      2650.0  Rx         02CB  4  00 00 1C 00 
   932)      2651.0  Rx         0385  8  00 00 00 00 00 00 10 00 
   933)      2651.8  Rx         03CB  5  01 00 00 00 00 
   934)      2652.8  Rx         0183  8  00 00 00 00 00 00 00 00 
   935)      2653.7  Rx         0383  8  4C 0D 01 00 4C 0D 01 00 
   936)      2654.4  Rx         0196  4  E8 2F F4 01 
   937)      2655.4  Rx         0384  8  00 00 00 00 08 00 00 00 
   938)      2656.3  Rx         0386  8  4C 0D 01 00 4C 0D 01 00 
   939)      2657.4  Rx         0387  8  00 00 00 00 08 00 00 00 
   940)      2663.3  Rx         01A3  4  83 0D F4 01 
   941)      2681.1  Rx         010B  6  00 00 00 00 00 00 
   942)      2681.9  Rx         020B  5  04 01 00 00 01 
   943)      2682.9  Rx         030B  8  18 00 00 00 00 00 00 00 
   944)      2688.0  Rx         0197  4  FA 14 F4 01 
   945)      2689.6  Rx         019E  4  F3 2F F4 01 
   946)      2690.6  Rx         01B0  4  82 0D F4 01 
   947)      2699.8  Rx         0185  8  FF FF FF FF FF FF FF FF 
   948)      2700.4  Rx         0285  3  00 00 00 
   949)      2701.4  Rx         0385  8  00 00 00 00 00 00 10 00 
   950)      2701.9  Rx         0773  1  05 
   951)      2702.9  Rx         0183  8  00 00 00 00 00 00 00 00 
   952)      2704.3  Rx         0196  4  E8 2F F4 01 
   953)      2713.3  Rx         01A3  4  83 0D F4 01 
   954)      2714.2  Rx         01CB  8  00 00 00 00 00 00 D8 03 
   955)      2714.9  Rx         02CB  4  00 00 1C 00 
   956)      2715.7  Rx         03CB  5  01 00 00 00 00 
   957)      2726.4  Rx         071E  1  05 
   958)      2738.1  Rx         0197  4  FA 14 F4 01 
   959)      2739.6  Rx         019E  4  F3 2F F4 01 
   960)      2740.6  Rx         01B0  4  82 0D F4 01 
   961)      2744.2  Rx         0716  1  05 
   962)      2749.8  Rx         0185  8  FF FF FF FF FF FF FF FF 
   963)      2750.4  Rx         0285  3  00 00 00 
   964)      2751.4  Rx         0385  8  00 00 00 00 00 00 10 00 
   965)      2752.4  Rx         0183  8  00 00 00 00 00 00 00 00 
   966)      2752.9  Rx         0723  1  05 
   967)      2754.3  Rx         0196  4  E8 2F F4 01 
   968)      2763.3  Rx         01A3  4  83 0D F4 01 
   969)      2764.2  Rx         0701  1  05 
   970)      2765.2  Rx         01CC  8  00 00 00 00 00 00 00 00 
   971)      2766.2  Rx         02CC  8  C8 00 00 00 2C 01 00 00 
   972)      2767.2  Rx         04CC  8  C8 00 00 00 2C 01 00 00 
   973)      2768.1  Rx         03CC  7  00 00 10 00 00 04 00 
   974)      2768.9  Rx         024C  4  00 00 00 00 
   975)      2771.6  Rx         01CB  8  00 00 00 00 00 00 D8 03 
   976)      2772.3  Rx         02CB  4  00 00 1C 00 
   977)      2773.1  Rx         03CB  5  01 00 00 00 00 
   978)      2781.1  Rx         010B  6  00 00 00 00 00 00 
   979)      2781.5  Rx         074B  1  05 
   980)      2782.3  Rx         020B  5  04 01 00 00 01 
   981)      2783.3  Rx         030B  8  18 00 00 00 00 00 00 00 
   982)      2785.6  Rx         070B  1  05 
   983)      2788.1  Rx         0197  4  FA 14 F4 01 
   984)      2789.6  Rx         019E  4  F3 2F F4 01 
   985)      2790.6  Rx         01B0  4  82 0D F4 01 
   986)      2804.4  Rx         0196  4  E8 2F F4 01 
   987)      2806.1  Rx         0185  8  FF FF FF FF FF FF FF FF 
   988)      2806.7  Rx         0285  3  00 00 00 
   989)      2807.7  Rx         0385  8  00 00 00 00 00 00 10 00 
   990)      2808.7  Rx         0183  8  00 00 00 00 00 00 00 00 
   991)      2813.2  Rx         01A3  4  83 0D F4 01 
   992)      2821.8  Rx         0717  1  05 
   993)      2828.4  Rx         0730  1  05 
   994)      2831.4  Rx         01CB  8  00 00 00 00 00 00 D8 03 
   995)      2832.2  Rx         02CB  4  00 00 1C 00 
   996)      2832.9  Rx         03CB  5  01 00 00 00 00 
   997)      2836.5  Rx         0381  6  2F 16 10 0C 03 15 
   998)      2837.4  Rx         0281  7  01 00 00 00 00 00 00 
   999)      2838.1  Rx         0197  4  FA 14 F4 01 
  1000)      2839.0  Rx         0382  7  00 00 00 00 00 00 00 
  1001)      2839.7  Rx         019E  4  F3 2F F4 01 
  1002)      2840.6  Rx         0481  8  01 00 02 00 00 00 2B B2 
  1003)      2841.3  Rx         01B0  4  82 0D F4 01 
  1004)      2842.3  Rx         0184  8  00 00 00 00 00 00 00 00 
  1005)      2843.4  Rx         0186  8  00 00 00 00 00 00 00 00 
  1006)      2844.0  Rx         0188  4  00 00 00 00 
  1007)      2845.1  Rx         0182  8  9C 00 00 00 00 00 00 00 
  1008)      2845.7  Rx         0189  4  00 00 00 00 
  1009)      2846.8  Rx         0181  8  00 00 00 00 00 00 00 00 
  1010)      2854.4  Rx         0196  4  E8 2F F4 01 
  1011)      2856.1  Rx         0185  8  FF FF FF FF FF FF FF FF 
  1012)      2856.7  Rx         0285  3  00 00 00 
  1013)      2857.7  Rx         0385  8  00 00 00 00 00 00 10 00 
  1014)      2858.7  Rx         0183  8  00 00 00 00 00 00 00 00 
  1015)      2863.2  Rx         01A3  4  83 0D F4 01 
  1016)      2881.1  Rx         010B  6  00 00 00 00 00 00 
  1017)      2881.9  Rx         020B  5  04 01 00 00 01 
  1018)      2882.9  Rx         030B  8  18 00 00 00 00 00 00 00 
  1019)      2886.5  Rx         01CB  8  00 00 00 00 00 00 D8 03 
  1020)      2887.2  Rx         02CB  4  00 00 1C 00 
  1021)      2887.9  Rx         03CB  5  01 00 00 00 00 
  1022)      2888.6  Rx         0197  4  FA 14 F4 01 
  1023)      2889.6  Rx         019E  4  F3 2F F4 01 
  1024)      2890.6  Rx         01B0  4  82 0D F4 01 
  1025)      2904.4  Rx         0196  4  E8 2F F4 01 
  1026)      2906.1  Rx         0185  8  FF FF FF FF FF FF FF FF 
  1027)      2906.7  Rx         0285  3  00 00 00 
  1028)      2907.7  Rx         0385  8  00 00 00 00 00 00 10 00 
  1029)      2908.7  Rx         0183  8  00 00 00 00 00 00 00 00 
  1030)      2913.2  Rx         01A3  4  83 0D F4 01 
  1031)      2938.0  Rx         0197  4  FA 14 F4 01 
  1032)      2939.6  Rx         019E  4  F3 2F F4 01 
  1033)      2940.6  Rx         01B0  4  82 0D F4 01 
  1034)      2941.6  Rx         01CB  8  00 00 00 00 00 00 D8 03 
  1035)      2942.3  Rx         02CB  4  00 00 1C 00 
  1036)      2943.1  Rx         03CB  5  01 00 00 00 00 
  1037)      2954.4  Rx         0196  4  E8 2F F4 01 
  1038)      2960.9  Rx         0185  8  FF FF FF FF FF FF FF FF 
  1039)      2961.5  Rx         0285  3  00 00 00 
  1040)      2962.5  Rx         0385  8  00 00 00 00 00 00 10 00 
  1041)      2963.5  Rx         0183  8  00 00 00 00 00 00 00 00 
  1042)      2964.2  Rx         01A3  4  83 0D F4 01 
  1043)      2976.4  Rx         071E  1  05 
  1044)      2981.1  Rx         010B  6  00 00 00 00 00 00 
  1045)      2981.8  Rx         020B  5  04 01 00 00 01 
  1046)      2982.9  Rx         030B  8  18 00 00 00 00 00 00 00 
  1047)      2988.1  Rx         0197  4  FA 14 F4 01 
  1048)      2989.6  Rx         019E  4  F3 2F F4 01 
  1049)      2990.6  Rx         01B0  4  82 0D F4 01 
  1050)      2994.1  Rx         0716  1  05 
  1051)      2996.5  Rx         01CB  8  00 00 00 00 00 00 D8 03 
  1052)      2997.2  Rx         02CB  4  00 00 1C 00 
  1053)      2998.0  Rx         03CB  5  01 00 00 00 00 
  1054)      3002.0  Rx         0723  1  05 
  1055)      3004.3  Rx         0196  4  E8 2F F4 01 
  1056)      3013.2  Rx         01A3  4  83 0D F4 01 
  1057)      3014.2  Rx         0185  8  FF FF FF FF FF FF FF FF 
  1058)      3014.9  Rx         0285  3  00 00 00 
  1059)      3015.8  Rx         0385  8  00 00 00 00 00 00 10 00 
  1060)      3016.9  Rx         0183  8  00 00 00 00 00 00 00 00 
  1061)      3022.1  Rx         0701  1  05 
  1062)      3023.1  Rx         01CC  8  00 00 00 00 00 00 00 00 
  1063)      3024.1  Rx         02CC  8  C8 00 00 00 2C 01 00 00 
  1064)      3025.1  Rx         04CC  8  C8 00 00 00 2C 01 00 00 
  1065)      3026.0  Rx         03CC  7  00 00 10 00 00 04 00 
  1066)      3026.7  Rx         024C  4  00 00 00 00 
  1067)      3035.6  Rx         070B  1  05 
  1068)      3038.0  Rx         0197  4  FA 14 F4 01 
  1069)      3039.6  Rx         019E  4  F3 2F F4 01 
  1070)      3040.6  Rx         01B0  4  82 0D F4 01 
  1071)      3054.3  Rx         0196  4  E8 2F F4 01 
  1072)      3055.5  Rx         01CB  8  00 00 00 00 00 00 D8 03 
  1073)      3056.2  Rx         02CB  4  00 00 1C 00 
  1074)      3057.0  Rx         03CB  5  01 00 00 00 00 
  1075)      3059.9  Rx         074B  1  05 
  1076)      3063.2  Rx         01A3  4  83 0D F4 01 
  1077)      3069.8  Rx         0185  8  FF FF FF FF FF FF FF FF 
  1078)      3070.4  Rx         0285  3  00 00 00 
  1079)      3071.4  Rx         0385  8  00 00 00 00 00 00 10 00 
  1080)      3071.9  Rx         0717  1  05 
  1081)      3072.9  Rx         0183  8  00 00 00 00 00 00 00 00 
  1082)      3078.3  Rx         0730  1  05 
  1083)      3081.1  Rx         010B  6  00 00 00 00 00 00 
  1084)      3081.8  Rx         020B  5  04 01 00 00 01 
  1085)      3082.9  Rx         030B  8  18 00 00 00 00 00 00 00 
  1086)      3088.0  Rx         0197  4  FA 14 F4 01 
  1087)      3089.5  Rx         0381  6  2F 16 10 0C 03 15 
  1088)      3090.1  Rx         019E  4  F3 2F F4 01 
  1089)      3090.8  Rx         01B0  4  82 0D F4 01 
  1090)      3092.5  Rx         0281  7  01 00 00 00 00 00 00 
  1091)      3093.4  Rx         0382  7  00 00 00 00 00 00 00 
  1092)      3094.5  Rx         0481  8  01 00 02 00 00 00 2B B2 
  1093)      3095.4  Rx         0184  8  00 00 00 00 00 00 00 00 
  1094)      3096.5  Rx         0186  8  00 00 00 00 00 00 00 00 
  1095)      3097.2  Rx         0188  4  00 00 00 00 
  1096)      3098.2  Rx         0182  8  9C 00 00 00 00 00 00 00 
  1097)      3098.9  Rx         0189  4  00 00 00 00 
  1098)      3099.9  Rx         0181  8  00 00 00 00 00 00 00 00 
  1099)      3104.3  Rx         0196  4  E8 2F F4 01 
  1100)      3113.5  Rx         01CB  8  00 00 00 00 00 00 D8 03 
  1101)      3114.1  Rx         01A3  4  83 0D F4 01 
  1102)      3114.8  Rx         02CB  4  00 00 1C 00 
  1103)      3115.6  Rx         03CB  5  01 00 00 00 00 
  1104)      3121.0  Rx         0185  8  FF FF FF FF FF FF FF FF 
  1105)      3121.6  Rx         0285  3  00 00 00 
  1106)      3122.6  Rx         0385  8  00 00 00 00 00 00 10 00 
  1107)      3123.6  Rx         0183  8  00 00 00 00 00 00 00 00 
  1108)      3138.0  Rx         0197  4  FA 14 F4 01 
  1109)      3139.6  Rx         019E  4  F3 2F F4 01 
  1110)      3140.6  Rx         01B0  4  82 0D F4 01 
  1111)      3154.3  Rx         0196  4  E8 2F F4 01 
  1112)      3163.2  Rx         01A3  4  83 0D F4 01 
  1113)      3170.6  Rx         01CB  8  00 00 00 00 00 00 D8 03 
  1114)      3171.3  Rx         02CB  4  00 00 1C 00 
  1115)      3172.0  Rx         03CB  5  01 00 00 00 00 
  1116)      3174.8  Rx         0185  8  FF FF FF FF FF FF FF FF 
  1117)      3175.5  Rx         0285  3  00 00 00 
  1118)      3176.5  Rx         0385  8  00 00 00 00 00 00 10 00 
  1119)      3177.5  Rx         0183  8  00 00 00 00 00 00 00 00 
  1120)      3181.1  Rx         010B  6  00 00 00 00 00 00 
  1121)      3181.8  Rx         020B  5  04 01 00 00 01 
  1122)      3182.8  Rx         030B  8  18 00 00 00 00 00 00 00 
  1123)      3187.9  Rx         0197  4  FA 14 F4 01 
  1124)      3189.6  Rx         019E  4  F3 2F F4 01 
  1125)      3190.5  Rx         01B0  4  82 0D F4 01 
  1126)      3204.3  Rx         0196  4  E8 2F F4 01 
  1127)      3213.2  Rx         01A3  4  83 0D F4 01 
  1128)      3226.4  Rx         071E  1  05 
  1129)      3227.8  Rx         0185  8  FF FF FF FF FF FF FF FF 
  1130)      3228.8  Rx         01CB  8  00 00 00 00 00 00 D8 03 
  1131)      3229.5  Rx         0285  3  00 00 00 
  1132)      3230.1  Rx         02CB  4  00 00 1C 00 
  1133)      3231.1  Rx         0385  8  00 00 00 00 00 00 10 00 
  1134)      3231.9  Rx         03CB  5  01 00 00 00 00 
  1135)      3232.9  Rx         0183  8  00 00 00 00 00 00 00 00 
  1136)      3237.9  Rx         0197  4  FA 14 F4 01 
  1137)      3239.6  Rx         019E  4  F3 2F F4 01 
  1138)      3240.5  Rx         01B0  4  82 0D F4 01 
  1139)      3244.1  Rx         0716  1  05 
  1140)      3252.0  Rx         0723  1  05 
  1141)      3254.3  Rx         0196  4  E8 2F F4 01 
  1142)      3263.2  Rx         01A3  4  83 0D F4 01 
  1143)      3279.1  Rx         0701  1  05 
  1144)      3280.1  Rx         01CC  8  00 00 00 00 00 00 00 00 
  1145)      3281.1  Rx         02CC  8  C8 00 00 00 2C 01 00 00 
  1146)      3281.9  Rx         010B  6  00 00 00 00 00 00 
  1147)      3282.9  Rx         04CC  8  C8 00 00 00 2C 01 00 00 
  1148)      3283.6  Rx         020B  5  04 01 00 00 01 
  1149)      3284.6  Rx         03CC  7  00 00 10 00 00 04 00 
  1150)      3285.6  Rx         030B  8  18 00 00 00 00 00 00 00 
  1151)      3286.5  Rx         0185  8  FF FF FF FF FF FF FF FF 
  1152)      3287.0  Rx         070B  1  05 
  1153)      3287.6  Rx         0285  3  00 00 00 
  1154)      3288.3  Rx         0197  4  FA 14 F4 01 
  1155)      3289.3  Rx         0385  8  00 00 00 00 00 00 10 00 
  1156)      3289.9  Rx         019E  4  F3 2F F4 01 
  1157)      3290.9  Rx         0183  8  00 00 00 00 00 00 00 00 
  1158)      3291.6  Rx         01B0  4  82 0D F4 01 
  1159)      3292.3  Rx         024C  4  00 00 00 00 
  1160)      3294.1  Rx         01CB  8  00 00 00 00 00 00 D8 03 
  1161)      3294.9  Rx         02CB  4  00 00 1C 00 
  1162)      3295.6  Rx         03CB  5  01 00 00 00 00 
  1163)      3304.3  Rx         0196  4  E8 2F F4 01 
  1164)      3313.2  Rx         01A3  4  83 0D F4 01 
  1165)      3321.7  Rx         0717  1  05 
  1166)      3328.3  Rx         0730  1  05 
  1167)      3329.8  Rx         0185  8  FF FF FF FF FF FF FF FF 
  1168)      3330.4  Rx         0285  3  00 00 00 
  1169)      3331.4  Rx         0385  8  00 00 00 00 00 00 10 00 
  1170)      3332.4  Rx         0183  8  00 00 00 00 00 00 00 00 
  1171)      3337.9  Rx         0197  4  FA 14 F4 01 
  1172)      3338.3  Rx         074B  1  05 
  1173)      3339.6  Rx         019E  4  F3 2F F4 01 
  1174)      3340.6  Rx         01B0  4  82 0D F4 01 
  1175)      3342.6  Rx         0381  6  2F 16 10 0C 03 15 
  1176)      3343.5  Rx         0281  7  01 00 00 00 00 00 00 
  1177)      3344.4  Rx         0382  7  00 00 00 00 00 00 00 
  1178)      3345.5  Rx         0481  8  01 00 02 00 00 00 2B B2 
  1179)      3346.8  Rx         0184  8  00 00 00 00 00 00 00 00 
  1180)      3348.0  Rx         0186  8  00 00 00 00 00 00 00 00 
  1181)      3348.8  Rx         0188  4  00 00 00 00 
  1182)      3350.2  Rx         0182  8  9C 00 00 00 00 00 00 00 
  1183)      3351.1  Rx         0189  4  00 00 00 00 
  1184)      3352.6  Rx         0181  8  00 00 00 00 00 00 00 00 
  1185)      3354.3  Rx         0196  4  E8 2F F4 01 
  1186)      3355.4  Rx         01CB  8  00 00 00 00 00 00 D8 03 
  1187)      3356.1  Rx         02CB  4  00 00 1C 00 
  1188)      3356.9  Rx         03CB  5  01 00 00 00 00 
  1189)      3363.2  Rx         01A3  4  83 0D F4 01 
  1190)      3381.0  Rx         010B  6  00 00 00 00 00 00 
  1191)      3381.8  Rx         020B  5  04 01 00 00 01 
  1192)      3382.8  Rx         030B  8  18 00 00 00 00 00 00 00 
  1193)      3387.6  Rx         0185  8  FF FF FF FF FF FF FF FF 
  1194)      3388.3  Rx         0197  4  FA 14 F4 01 
  1195)      3388.9  Rx         0285  3  00 00 00 
  1196)      3389.6  Rx         019E  4  F3 2F F4 01 
  1197)      3390.6  Rx         0385  8  00 00 00 00 00 00 10 00 
  1198)      3391.2  Rx         01B0  4  82 0D F4 01 
  1199)      3392.3  Rx         0183  8  00 00 00 00 00 00 00 00 
  1200)      3404.3  Rx         0196  4  E8 2F F4 01 
  1201)      3409.5  Rx         01CB  8  00 00 00 00 00 00 D8 03 
  1202)      3410.2  Rx         02CB  4  00 00 1C 00 
  1203)      3411.0  Rx         03CB  5  01 00 00 00 00 
  1204)      3413.2  Rx         01A3  4  83 0D F4 01 
  1205)      3437.8  Rx         0185  8  FF FF FF FF FF FF FF FF 
  1206)      3438.5  Rx         0197  4  FA 14 F4 01 
  1207)      3439.1  Rx         0285  3  00 00 00 
  1208)      3439.8  Rx         019E  4  F3 2F F4 01 
  1209)      3440.7  Rx         0385  8  00 00 00 00 00 00 10 00 
  1210)      3441.4  Rx         01B0  4  82 0D F4 01 
  1211)      3442.4  Rx         0183  8  00 00 00 00 00 00 00 00 
  1212)      3454.3  Rx         0196  4  E8 2F F4 01 
  1213)      3463.2  Rx         01A3  4  83 0D F4 01 
  1214)      3464.5  Rx         01CB  8  00 00 00 00 00 00 D8 03 
  1215)      3465.2  Rx         02CB  4  00 00 1C 00 
  1216)      3466.0  Rx         03CB  5  01 00 00 00 00 
  1217)      3476.4  Rx         071E  1  05 
  1218)      3481.1  Rx         010B  6  00 00 00 00 00 00 
  1219)      3481.8  Rx         020B  5  04 01 00 00 01 
  1220)      3482.8  Rx         030B  8  18 00 00 00 00 00 00 00 
  1221)      3487.9  Rx         0197  4  FA 14 F4 01 
  1222)      3489.6  Rx         0185  8  FF FF FF FF FF FF FF FF 
  1223)      3490.3  Rx         019E  4  F3 2F F4 01 
  1224)      3491.0  Rx         01B0  4  82 0D F4 01 
  1225)      3492.2  Rx         0285  3  00 00 00 
  1226)      3493.3  Rx         0385  8  00 00 00 00 00 00 10 00 
  1227)      3494.2  Rx         0183  8  00 00 00 00 00 00 00 00 
  1228)      3494.7  Rx         0716  1  05 
  1229)      3502.0  Rx         0723  1  05 
  1230)      3504.3  Rx         0196  4  E8 2F F4 01 
  1231)      3513.2  Rx         01A3  4  83 0D F4 01 
  1232)      3521.5  Rx         01CB  8  00 00 00 00 00 00 D8 03 
  1233)      3522.3  Rx         02CB  4  00 00 1C 00 
  1234)      3523.0  Rx         03CB  5  01 00 00 00 00 
  1235)      3533.1  Rx         0701  1  05 
  1236)      3534.1  Rx         01CC  8  00 00 00 00 00 00 00 00 
  1237)      3535.1  Rx         02CC  8  C8 00 00 00 2C 01 00 00 
  1238)      3536.1  Rx         04CC  8  C8 00 00 00 2C 01 00 00 
  1239)      3536.6  Rx         070B  1  05 
  1240)      3537.5  Rx         03CC  7  00 00 10 00 00 04 00 
  1241)      3538.1  Rx         0197  4  FA 14 F4 01 
  1242)      3538.8  Rx         024C  4  00 00 00 00 
  1243)      3539.8  Rx         0185  8  FF FF FF FF FF FF FF FF 
  1244)      3540.5  Rx         019E  4  F3 2F F4 01 
  1245)      3541.2  Rx         01B0  4  82 0D F4 01 
  1246)      3542.2  Rx         0285  3  00 00 00 
  1247)      3543.3  Rx         0385  8  00 00 00 00 00 00 10 00 
  1248)      3544.3  Rx         0183  8  00 00 00 00 00 00 00 00 
  1249)      3554.3  Rx         0196  4  E8 2F F4 01 
  1250)      3563.2  Rx         01A3  4  83 0D F4 01 
  1251)      3571.8  Rx         0717  1  05 
  1252)      3578.3  Rx         0730  1  05 
  1253)      3580.6  Rx         01CB  8  00 00 00 00 00 00 D8 03 
  1254)      3581.4  Rx         010B  6  00 00 00 00 00 00 
  1255)      3582.1  Rx         02CB  4  00 00 1C 00 
  1256)      3582.9  Rx         020B  5  04 01 00 00 01 
  1257)      3583.6  Rx         03CB  5  01 00 00 00 00 
  1258)      3584.6  Rx         030B  8  18 00 00 00 00 00 00 00 
  1259)      3587.8  Rx         0197  4  FA 14 F4 01 
  1260)      3589.6  Rx         019E  4  F3 2F F4 01 
  1261)      3590.5  Rx         01B0  4  82 0D F4 01 
  1262)      3592.2  Rx         0185  8  FF FF FF FF FF FF FF FF 
  1263)      3592.8  Rx         0285  3  00 00 00 
  1264)      3593.8  Rx         0385  8  00 00 00 00 00 00 10 00 
  1265)      3594.8  Rx         0183  8  00 00 00 00 00 00 00 00 
  1266)      3600.6  Rx         0381  6  2F 16 10 0C 03 15 
  1267)      3601.5  Rx         0281  7  01 00 00 00 00 00 00 
  1268)      3602.5  Rx         0382  7  00 00 00 00 00 00 00 
  1269)      3603.5  Rx         0481  8  01 00 02 00 00 00 2B B2 
  1270)      3604.5  Rx         0184  8  00 00 00 00 00 00 00 00 
  1271)      3605.2  Rx         0196  4  E8 2F F4 01 
  1272)      3606.2  Rx         0186  8  00 00 00 00 00 00 00 00 
  1273)      3606.9  Rx         0188  4  00 00 00 00 
  1274)      3607.9  Rx         0182  8  9C 00 00 00 00 00 00 00 
  1275)      3608.6  Rx         0189  4  00 00 00 00 
  1276)      3609.6  Rx         0181  8  00 00 00 00 00 00 00 00 
  1277)      3613.2  Rx         01A3  4  83 0D F4 01 
  1278)      3623.0  Rx         074B  1  05 
  1279)      3629.8  Rx         0601  8  2F 39 20 00 01 00 00 00 
  1280)      3637.9  Rx         0197  4  FA 14 F4 01 
  1281)      3638.8  Rx         01CB  8  00 00 00 00 00 00 D8 03 
  1282)      3639.6  Rx         02CB  4  00 00 1C 00 
  1283)      3640.2  Rx         019E  4  F3 2F F4 01 
  1284)      3640.9  Rx         01B0  4  82 0D F4 01 
  1285)      3643.3  Rx         03CB  5  01 00 00 00 00 
  1286)      3654.3  Rx         0196  4  E8 2F F4 01 
  1287)      3663.2  Rx         01A3  4  83 0D F4 01 
  1288)      3664.2  Rx         0581  8  60 39 20 00 00 00 00 00 
  1289)      3668.8  Rx         0185  8  FF FF FF FF FF FF FF FF 
  1290)      3669.4  Rx         0285  3  00 00 00 
  1291)      3670.4  Rx         0385  8  00 00 00 00 00 00 10 00 
  1292)      3671.5  Rx         0183  8  00 00 00 00 00 00 00 00 
  1293)      3672.4  Rx         0383  8  4D 0D 01 00 4D 0D 01 00 
  1294)      3673.4  Rx         0384  8  00 00 00 00 08 00 00 00 
  1295)      3674.4  Rx         0386  8  4D 0D 01 00 4D 0D 01 00 
  1296)      3675.4  Rx         0387  8  00 00 00 00 08 00 00 00 
  1297)      3681.0  Rx         010B  6  00 00 00 00 00 00 
  1298)      3681.8  Rx         020B  5  04 01 00 00 01 
  1299)      3682.8  Rx         030B  8  18 00 00 00 00 00 00 00 
  1300)      3687.9  Rx         0197  4  FA 14 F4 01 
  1301)      3689.6  Rx         019E  4  F3 2F F4 01 
  1302)      3690.5  Rx         01B0  4  82 0D F4 01 
  1303)      3697.6  Rx         01CB  8  00 00 00 00 00 00 D8 03 
  1304)      3698.3  Rx         02CB  4  00 00 1C 00 
  1305)      3699.0  Rx         03CB  5  01 00 00 00 00 
  1306)      3704.3  Rx         0196  4  E8 2F F4 01 
  1307)      3713.2  Rx         01A3  4  83 0D F4 01 
  1308)      3717.9  Rx         0773  1  05 
  1309)      3719.3  Rx         0185  8  FF FF FF FF FF FF FF FF 
  1310)      3720.0  Rx         0285  3  00 00 00 
  1311)      3721.0  Rx         0385  8  00 00 00 00 00 00 00 00 
  1312)      3722.0  Rx         0183  8  00 00 00 00 00 00 00 00 
  1313)      3726.4  Rx         071E  1  05 
  1314)      3737.8  Rx         0197  4  FA 14 F4 01 
  1315)      3739.6  Rx         019E  4  F3 2F F4 01 
  1316)      3740.5  Rx         01B0  4  82 0D F4 01 
  1317)      3744.1  Rx         0716  1  05 
  1318)      3752.0  Rx         0723  1  05 
  1319)      3753.0  Rx         01CB  8  00 00 00 00 00 00 D8 03 
  1320)      3753.7  Rx         02CB  4  00 00 1C 00 
  1321)      3754.3  Rx         0196  4  E8 2F F4 01 
  1322)      3755.1  Rx         03CB  5  01 00 00 00 00 
  1323)      3763.2  Rx         01A3  4  83 0D F4 01 
  1324)      3771.9  Rx         0185  8  FF FF FF FF FF FF FF FF 
  1325)      3772.5  Rx         0285  3  00 00 00 
  1326)      3773.5  Rx         0385  8  00 00 00 00 00 00 00 00 
  1327)      3774.6  Rx         0183  8  00 00 00 00 00 00 00 00 
  1328)      3781.0  Rx         010B  6  00 00 00 00 00 00 
  1329)      3781.8  Rx         020B  5  04 01 00 00 01 
  1330)      3782.8  Rx         030B  8  18 00 00 00 00 00 00 00 
  1331)      3785.6  Rx         070B  1  05 
  1332)      3786.0  Rx         0701  1  05 
  1333)      3787.1  Rx         01CC  8  00 00 00 00 00 00 00 00 
  1334)      3788.1  Rx         02CC  8  C8 00 00 00 2C 01 00 00 
  1335)      3788.7  Rx         0197  4  FA 14 F4 01 
  1336)      3789.7  Rx         04CC  8  C8 00 00 00 2C 01 00 00 
  1337)      3790.3  Rx         019E  4  F3 2F F4 01 
  1338)      3791.0  Rx         01B0  4  82 0D F4 01 
  1339)      3791.9  Rx         03CC  7  00 00 00 00 00 04 00 
  1340)      3792.6  Rx         024C  4  00 00 00 00 
  1341)      3804.3  Rx         0196  4  E8 2F F4 01 
  1342)      3813.2  Rx         01A3  4  83 0D F4 01 
  1343)      3817.6  Rx         01CB  8  00 00 00 00 00 00 D8 03 
  1344)      3818.3  Rx         02CB  4  00 00 1C 00 
  1345)      3819.1  Rx         03CB  5  01 00 00 00 00 
  1346)      3821.9  Rx         0185  8  FF FF FF FF FF FF FF FF 
  1347)      3822.3  Rx         0717  1  05 
  1348)      3823.0  Rx         0285  3  00 00 00 
  1349)      3824.0  Rx         0385  8  00 00 00 00 00 00 00 00 
  1350)      3825.0  Rx         0183  8  00 00 00 00 00 00 00 00 
  1351)      3828.3  Rx         0730  1  05 
  1352)      3837.9  Rx         0197  4  FA 14 F4 01 
  1353)      3839.6  Rx         019E  4  F3 2F F4 01 
  1354)      3840.6  Rx         01B0  4  82 0D F4 01 
  1355)      3850.6  Rx         0381  6  2F 16 10 0C 03 15 
  1356)      3851.6  Rx         0281  7  01 00 00 00 00 00 00 
  1357)      3852.5  Rx         0382  7  00 00 00 00 00 00 00 
  1358)      3853.5  Rx         0481  8  02 00 02 00 00 00 2B B2 
  1359)      3854.5  Rx         0184  8  00 00 00 00 00 00 00 00 
  1360)      3855.2  Rx         0196  4  E8 2F F4 01 
  1361)      3856.2  Rx         0186  8  00 00 00 00 00 00 00 00 
  1362)      3856.9  Rx         0188  4  00 00 00 00 
  1363)      3857.9  Rx         0182  8  9C 00 00 00 00 00 00 00 
  1364)      3858.6  Rx         0189  4  00 00 00 00 
  1365)      3859.6  Rx         0181  8  00 00 00 00 00 00 00 00 
  1366)      3863.2  Rx         01A3  4  83 0D F4 01 
  1367)      3872.9  Rx         0185  8  FF FF FF FF FF FF FF FF 
  1368)      3873.5  Rx         0285  3  00 00 00 
  1369)      3874.5  Rx         0385  8  00 00 00 00 00 00 00 00 
  1370)      3875.5  Rx         0183  8  00 00 00 00 00 00 00 00 
  1371)      3877.2  Rx         01CB  8  00 00 00 00 00 00 D8 03 
  1372)      3877.8  Rx         02CB  4  00 00 1C 00 
  1373)      3878.6  Rx         03CB  5  01 00 00 00 00 
  1374)      3881.0  Rx         010B  6  00 00 00 00 00 00 
  1375)      3881.8  Rx         020B  5  04 01 00 00 01 
  1376)      3882.8  Rx         030B  8  18 00 00 00 00 00 00 00 
  1377)      3887.7  Rx         0197  4  FA 14 F4 01 
  1378)      3889.6  Rx         019E  4  F3 2F F4 01 
  1379)      3890.5  Rx         01B0  4  82 0D F4 01 
  1380)      3901.0  Rx         074B  1  05 
  1381)      3904.3  Rx         0196  4  E8 2F F4 01 
  1382)      3913.2  Rx         01A3  4  83 0D F4 01 
  1383)      3928.9  Rx         0185  8  FF FF FF FF FF FF FF FF 
  1384)      3929.5  Rx         0285  3  00 00 00 
  1385)      3930.5  Rx         0385  8  00 00 00 00 00 00 00 00 
  1386)      3931.6  Rx         0183  8  00 00 00 00 00 00 00 00 
  1387)      3932.7  Rx         01CB  8  00 00 00 00 00 00 D8 03 
  1388)      3933.4  Rx         02CB  4  00 00 1C 00 
  1389)      3934.2  Rx         03CB  5  01 00 00 00 00 
  1390)      3937.8  Rx         0197  4  FA 14 F4 01 
  1391)      3939.5  Rx         019E  4  F3 2F F4 01 
  1392)      3940.5  Rx         01B0  4  82 0D F4 01 
  1393)      3954.3  Rx         0196  4  E8 2F F4 01 
  1394)      3963.2  Rx         01A3  4  83 0D F4 01 
  1395)      3976.4  Rx         071E  1  05 
  1396)      3981.1  Rx         010B  6  00 00 00 00 00 00 
  1397)      3982.0  Rx         0185  8  FF FF FF FF FF FF FF FF 
  1398)      3982.8  Rx         020B  5  04 01 00 00 01 
  1399)      3983.4  Rx         0285  3  00 00 00 
  1400)      3984.4  Rx         030B  8  18 00 00 00 00 00 00 00 
  1401)      3985.4  Rx         0385  8  00 00 00 00 00 00 00 00 
  1402)      3986.4  Rx         0183  8  00 00 00 00 00 00 00 00 
  1403)      3987.8  Rx         0197  4  FA 14 F4 01 
  1404)      3989.5  Rx         019E  4  F3 2F F4 01 
  1405)      3990.5  Rx         01B0  4  82 0D F4 01 
  1406)      3991.6  Rx         01CB  8  00 00 00 00 00 00 D8 03 
  1407)      3992.3  Rx         02CB  4  00 00 1C 00 
  1408)      3993.1  Rx         03CB  5  01 00 00 00 00 
  1409)      3994.1  Rx         0716  1  05 
  1410)      4002.0  Rx         0723  1  05 
  1411)      4004.3  Rx         0196  4  E8 2F F4 01 
  1412)      4013.2  Rx         01A3  4  83 0D F4 01 
  1413)      4035.6  Rx         070B  1  05 
  1414)      4036.3  Rx         0701  1  05 
  1415)      4037.3  Rx         01CC  8  00 00 00 00 00 00 00 00 
  1416)      4037.9  Rx         0197  4  FA 14 F4 01 
  1417)      4038.9  Rx         02CC  8  C8 00 00 00 2C 01 00 00 
  1418)      4039.6  Rx         019E  4  F3 2F F4 01 
  1419)      4040.5  Rx         04CC  8  C8 00 00 00 2C 01 00 00 
  1420)      4041.2  Rx         01B0  4  82 0D F4 01 
  1421)      4042.2  Rx         03CC  7  00 00 00 00 00 04 00 
  1422)      4043.1  Rx         0185  8  FF FF FF FF FF FF FF FF 
  1423)      4043.8  Rx         0285  3  00 00 00 
  1424)      4044.8  Rx         0385  8  00 00 00 00 00 00 00 00 
  1425)      4045.8  Rx         0183  8  00 00 00 00 00 00 00 00 
  1426)      4046.5  Rx         024C  4  00 00 00 00 
  1427)      4047.5  Rx         01CB  8  00 00 00 00 00 00 D8 03 
  1428)      4048.2  Rx         02CB  4  00 00 1C 00 
  1429)      4049.0  Rx         03CB  5  01 00 00 00 00 
  1430)      4054.3  Rx         0196  4  E8 2F F4 01 
  1431)      4063.2  Rx         01A3  4  83 0D F4 01 
  1432)      4071.6  Rx         0717  1  05 
  1433)      4078.3  Rx         0730  1  05 
  1434)      4081.0  Rx         010B  6  00 00 00 00 00 00 
  1435)      4081.8  Rx         020B  5  04 01 00 00 01 
  1436)      4082.8  Rx         030B  8  18 00 00 00 00 00 00 00 
  1437)      4087.7  Rx         0197  4  FA 14 F4 01 
  1438)      4089.3  Rx         0185  8  FF FF FF FF FF FF FF FF 
  1439)      4090.0  Rx         019E  4  F3 2F F4 01 
  1440)      4090.7  Rx         01B0  4  82 0D F4 01 
  1441)      4092.3  Rx         0285  3  00 00 00 
  1442)      4093.3  Rx         0385  8  00 00 00 00 00 00 00 00 
  1443)      4094.3  Rx         0183  8  00 00 00 00 00 00 00 00 
  1444)      4104.3  Rx         0196  4  E8 2F F4 01 
  1445)      4105.6  Rx         01CB  8  00 00 00 00 00 00 D8 03 
  1446)      4106.4  Rx         0381  6  2F 16 10 0C 03 15 
  1447)      4107.1  Rx         02CB  4  00 00 1C 00 
  1448)      4108.0  Rx         0281  7  01 00 00 00 00 00 00 
  1449)      4108.8  Rx         03CB  5  01 00 00 00 00 
  1450)      4109.7  Rx         0382  7  00 00 00 00 00 00 00 
  1451)      4110.7  Rx         0481  8  02 00 02 00 00 00 2B B2 
  1452)      4111.7  Rx         0184  8  00 00 00 00 00 00 00 00 
  1453)      4112.8  Rx         0186  8  00 00 00 00 00 00 00 00 
  1454)      4113.4  Rx         01A3  4  83 0D F4 01 
  1455)      4114.1  Rx         0188  4  00 00 00 00 
  1456)      4115.1  Rx         0182  8  9C 00 00 00 00 00 00 00 
  1457)      4115.8  Rx         0189  4  00 00 00 00 
  1458)      4116.8  Rx         0181  8  00 00 00 00 00 00 00 00 
  1459)      4137.7  Rx         0197  4  FA 14 F4 01 
  1460)      4139.5  Rx         019E  4  F3 2F F4 01 
  1461)      4140.5  Rx         01B0  4  82 0D F4 01 
  1462)      4143.0  Rx         0185  8  FF FF FF FF FF FF FF FF 
  1463)      4143.6  Rx         0285  3  00 00 00 
  1464)      4144.6  Rx         0385  8  00 00 00 00 00 00 00 00 
  1465)      4145.6  Rx         0183  8  00 00 00 00 00 00 00 00 
  1466)      4154.3  Rx         0196  4  E8 2F F4 01 
  1467)      4161.6  Rx         01CB  8  00 00 00 00 00 00 D8 03 
  1468)      4162.3  Rx         02CB  4  00 00 1C 00 
  1469)      4163.1  Rx         03CB  5  01 00 00 00 00 
  1470)      4163.8  Rx         01A3  4  83 0D F4 01 
  1471)      4181.0  Rx         010B  6  00 00 00 00 00 00 
  1472)      4181.8  Rx         020B  5  04 01 00 00 01 
  1473)      4182.8  Rx         030B  8  18 00 00 00 00 00 00 00 
  1474)      4184.0  Rx         074B  1  05 
  1475)      4187.8  Rx         0197  4  FA 14 F4 01 
  1476)      4189.6  Rx         019E  4  F3 2F F4 01 
  1477)      4190.5  Rx         01B0  4  82 0D F4 01 
  1478)      4197.9  Rx         0185  8  FF FF FF FF FF FF FF FF 
  1479)      4198.6  Rx         0285  3  00 00 00 
  1480)      4199.5  Rx         0385  8  00 00 00 00 00 00 00 00 
  1481)      4200.6  Rx         0183  8  00 00 00 00 00 00 00 00 
  1482)      4204.3  Rx         0196  4  E8 2F F4 01 
  1483)      4213.2  Rx         01A3  4  83 0D F4 01 
  1484)      4216.6  Rx         01CB  8  00 00 00 00 00 00 D8 03 
  1485)      4217.4  Rx         02CB  4  00 00 1C 00 
  1486)      4218.1  Rx         03CB  5  01 00 00 00 00 
  1487)      4226.3  Rx         071E  1  05 
  1488)      4237.7  Rx         0197  4  FA 14 F4 01 
  1489)      4239.6  Rx         019E  4  F3 2F F4 01 
  1490)      4240.5  Rx         01B0  4  82 0D F4 01 
  1491)      4244.1  Rx         0716  1  05 
  1492)      4249.9  Rx         0185  8  FF FF FF FF FF FF FF FF 
  1493)      4250.6  Rx         0285  3  00 00 00 
  1494)      4251.5  Rx         0385  8  00 00 00 00 00 00 00 00 
  1495)      4252.0  Rx         0723  1  05 
  1496)      4253.0  Rx         0183  8  00 00 00 00 00 00 00 00 
  1497)      4254.3  Rx         0196  4  E8 2F F4 01 
  1498)      4263.2  Rx         01A3  4  83 0D F4 01 
  1499)      4280.6  Rx         01CB  8  00 00 00 00 00 00 D8 03 
  1500)      4281.5  Rx         010B  6  00 00 00 00 00 00 
  1501)      4282.2  Rx         02CB  4  00 00 1C 00 
  1502)      4282.9  Rx         020B  5  04 01 00 00 01 
  1503)      4283.7  Rx         03CB  5  01 00 00 00 00 
  1504)      4284.7  Rx         030B  8  18 00 00 00 00 00 00 00 
  1505)      4285.6  Rx         070B  1  05 
  1506)      4286.4  Rx         0701  1  05 
  1507)      4287.4  Rx         01CC  8  00 00 00 00 00 00 00 00 
  1508)      4288.0  Rx         0197  4  FA 14 F4 01 
  1509)      4289.0  Rx         02CC  8  C8 00 00 00 2C 01 00 00 
  1510)      4289.7  Rx         019E  4  F3 2F F4 01 
  1511)      4290.6  Rx         04CC  8  C8 00 00 00 2C 01 00 00 
  1512)      4291.3  Rx         01B0  4  82 0D F4 01 
  1513)      4292.2  Rx         03CC  7  00 00 00 00 00 04 00 
  1514)      4293.0  Rx         024C  4  00 00 00 00 
  1515)      4299.9  Rx         0185  8  FF FF FF FF FF FF FF FF 
  1516)      4300.6  Rx         0285  3  00 00 00 
  1517)      4301.6  Rx         0385  8  00 00 00 00 00 00 00 00 
  1518)      4302.6  Rx         0183  8  00 00 00 00 00 00 00 00 
  1519)      4304.3  Rx         0196  4  E8 2F F4 01 
  1520)      4313.2  Rx         01A3  4  83 0D F4 01 
  1521)      4321.4  Rx         0717  1  05 
  1522)      4328.3  Rx         0730  1  05 
  1523)      4335.7  Rx         01CB  8  00 00 00 00 00 00 D8 03 
  1524)      4336.4  Rx         02CB  4  00 00 1C 00 
  1525)      4337.1  Rx         03CB  5  01 00 00 00 00 
  1526)      4337.8  Rx         0197  4  FA 14 F4 01 
  1527)      4339.5  Rx         019E  4  F3 2F F4 01 
  1528)      4340.5  Rx         01B0  4  82 0D F4 01 
  1529)      4353.1  Rx         0185  8  FF FF FF FF FF FF FF FF 
  1530)      4353.7  Rx         0285  3  00 00 00 
  1531)      4354.4  Rx         0196  4  E8 2F F4 01 
  1532)      4355.4  Rx         0385  8  00 00 00 00 00 00 00 00 
  1533)      4356.4  Rx         0183  8  00 00 00 00 00 00 00 00 
  1534)      4357.4  Rx         0673  8  23 01 2A 02 03 00 00 00 
  1535)      4361.7  Rx         0381  6  2F 16 10 0C 03 15 
  1536)      4362.6  Rx         0281  7  01 00 00 00 00 00 00 
  1537)      4363.3  Rx         01A3  4  83 0D F4 01 
  1538)      4364.2  Rx         0382  7  00 00 00 00 00 00 00 
  1539)      4365.2  Rx         0481  8  02 00 02 00 00 00 2B B2 
  1540)      4366.2  Rx         0184  8  00 00 00 00 00 00 00 00 
  1541)      4367.2  Rx         0186  8  00 00 00 00 00 00 00 00 
  1542)      4367.9  Rx         0188  4  00 00 00 00 
  1543)      4369.0  Rx         0182  8  9C 00 00 00 00 00 00 00 
  1544)      4369.6  Rx         0189  4  00 00 00 00 
  1545)      4370.7  Rx         0181  8  00 00 00 00 00 00 00 00 
  1546)      4381.0  Rx         010B  6  00 00 00 00 00 00 
  1547)      4381.8  Rx         020B  5  04 01 00 00 01 
  1548)      4382.8  Rx         030B  8  18 00 00 00 00 00 00 00 
  1549)      4387.8  Rx         0197  4  FA 14 F4 01 
  1550)      4389.6  Rx         019E  4  F3 2F F4 01 
  1551)      4390.5  Rx         01B0  4  82 0D F4 01 
  1552)      4395.7  Rx         01CB  8  00 00 00 00 00 00 D8 03 
  1553)      4396.4  Rx         02CB  4  00 00 1C 00 
  1554)      4397.2  Rx         03CB  5  01 00 00 00 00 
  1555)      4399.7  Rx         05F3  8  60 01 2A 02 00 00 00 00 
  1556)      4404.3  Rx         0196  4  E8 2F F4 01 
  1557)      4406.0  Rx         0185  8  FF FF FF FF FF FF FF FF 
  1558)      4406.6  Rx         0285  3  00 00 00 
  1559)      4407.6  Rx         0385  8  00 00 00 00 00 00 00 00 
  1560)      4408.6  Rx         0183  8  00 00 00 00 00 00 00 00 
  1561)      4413.2  Rx         01A3  4  83 0D F4 01 
  1562)      4437.6  Rx         0197  4  FA 14 F4 01 
  1563)      4439.5  Rx         019E  4  F3 2F F4 01 
  1564)      4440.5  Rx         01B0  4  82 0D F4 01 
  1565)      4452.7  Rx         01CB  8  00 00 00 00 00 00 D8 03 
  1566)      4453.4  Rx         02CB  4  00 00 1C 00 
  1567)      4454.2  Rx         03CB  5  01 00 00 00 00 
  1568)      4454.8  Rx         0196  4  E8 2F F4 01 
  1569)      4457.3  Rx         0185  8  FF FF FF FF FF FF FF FF 
  1570)      4457.9  Rx         0285  3  00 00 00 
  1571)      4458.9  Rx         0385  8  00 00 00 00 00 00 00 00 
  1572)      4460.0  Rx         0183  8  00 00 00 00 00 00 00 00 
  1573)      4463.2  Rx         01A3  4  83 0D F4 01 
  1574)      4465.1  Rx         074B  1  05 
  1575)      4476.4  Rx         071E  1  05 
  1576)      4481.0  Rx         010B  6  00 00 00 00 00 00 
  1577)      4481.8  Rx         020B  5  04 01 00 00 01 
  1578)      4482.8  Rx         030B  8  18 00 00 00 00 00 00 00 
  1579)      4487.6  Rx         0197  4  FA 14 F4 01 
  1580)      4489.5  Rx         019E  4  F3 2F F4 01 
  1581)      4490.5  Rx         01B0  4  82 0D F4 01 
  1582)      4494.1  Rx         0716  1  05 
  1583)      4502.0  Rx         0723  1  05 
  1584)      4504.3  Rx         0196  4  E8 2F F4 01 
  1585)      4507.7  Rx         01CB  8  00 00 00 00 00 00 D8 03 
  1586)      4508.4  Rx         02CB  4  00 00 1C 00 
  1587)      4509.2  Rx         03CB  5  01 00 00 00 00 
  1588)      4512.1  Rx         0185  8  FF FF FF FF FF FF FF FF 
  1589)      4512.7  Rx         0285  3  00 00 00 
  1590)      4513.3  Rx         01A3  4  83 0D F4 01 
  1591)      4514.3  Rx         0385  8  00 00 00 00 00 00 00 00 
  1592)      4515.3  Rx         0183  8  00 00 00 00 00 00 00 00 
  1593)      4535.6  Rx         070B  1  05 
  1594)      4536.3  Rx         0701  1  05 
  1595)      4537.3  Rx         01CC  8  00 00 00 00 00 00 00 00 
  1596)      4537.9  Rx         0197  4  FA 14 F4 01 
  1597)      4538.9  Rx         02CC  8  C8 00 00 00 2C 01 00 00 
  1598)      4539.5  Rx         019E  4  F3 2F F4 01 
  1599)      4540.5  Rx         04CC  8  C8 00 00 00 2C 01 00 00 
  1600)      4541.2  Rx         01B0  4  82 0D F4 01 
  1601)      4542.1  Rx         03CC  7  00 00 00 00 00 04 00 
  1602)      4542.8  Rx         024C  4  00 00 00 00 
  1603)      4554.3  Rx         0196  4  E8 2F F4 01 
  1604)      4563.2  Rx         01A3  4  83 0D F4 01 
  1605)      4564.2  Rx         0185  8  FF FF FF FF FF FF FF FF 
  1606)      4564.8  Rx         0285  3  00 00 00 
  1607)      4565.8  Rx         0385  8  00 00 00 00 00 00 00 00 
  1608)      4566.8  Rx         01CB  8  00 00 00 00 00 00 D8 03 
  1609)      4567.8  Rx         0183  8  00 00 00 00 00 00 00 00 
  1610)      4568.5  Rx         02CB  4  00 00 1C 00 
  1611)      4569.2  Rx         03CB  5  01 00 00 00 00 
  1612)      4571.4  Rx         0717  1  05 
  1613)      4578.3  Rx         0730  1  05 
  1614)      4581.0  Rx         010B  6  00 00 00 00 00 00 
  1615)      4581.8  Rx         020B  5  04 01 00 00 01 
  1616)      4582.8  Rx         030B  8  18 00 00 00 00 00 00 00 
  1617)      4587.6  Rx         0197  4  FA 14 F4 01 
  1618)      4589.5  Rx         019E  4  F3 2F F4 01 
  1619)      4590.5  Rx         01B0  4  82 0D F4 01 
  1620)      4604.3  Rx         0196  4  E8 2F F4 01 
  1621)      4613.1  Rx         01A3  4  83 0D F4 01 
  1622)      4614.0  Rx         0381  6  2F 16 10 0C 03 15 
  1623)      4614.9  Rx         0281  7  01 00 00 00 00 00 00 
  1624)      4615.8  Rx         0382  7  00 00 00 00 00 00 00 
  1625)      4616.8  Rx         0481  8  02 00 02 00 00 00 2B B2 
  1626)      4617.8  Rx         0184  8  00 00 00 00 00 00 00 00 
  1627)      4618.9  Rx         0186  8  00 00 00 00 00 00 00 00 
  1628)      4619.5  Rx         0188  4  00 00 00 00 
  1629)      4620.6  Rx         0182  8  9C 00 00 00 00 00 00 00 
  1630)      4621.2  Rx         0189  4  00 00 00 00 
  1631)      4622.3  Rx         0181  8  00 00 00 00 00 00 00 00 
  1632)      4623.3  Rx         0185  8  FF FF FF FF FF FF FF FF 
  1633)      4623.9  Rx         0285  3  00 00 00 
  1634)      4625.0  Rx         0385  8  00 00 00 00 00 00 00 00 
  1635)      4625.9  Rx         0183  8  00 00 00 00 00 00 00 00 
  1636)      4628.8  Rx         01CB  8  00 00 00 00 00 00 D8 03 
  1637)      4630.5  Rx         02CB  4  00 00 1C 00 
  1638)      4632.3  Rx         03CB  5  01 00 00 00 00 
  1639)      4637.6  Rx         0197  4  FA 14 F4 01 
  1640)      4639.6  Rx         019E  4  F3 2F F4 01 
  1641)      4640.5  Rx         01B0  4  82 0D F4 01 
  1642)      4654.3  Rx         0196  4  E8 2F F4 01 
  1643)      4663.1  Rx         01A3  4  83 0D F4 01 
  1644)      4664.2  Rx         0185  8  FF FF FF FF FF FF FF FF 
  1645)      4664.8  Rx         0285  3  00 00 00 
  1646)      4665.8  Rx         0385  8  00 00 00 00 00 00 00 00 
  1647)      4666.8  Rx         0183  8  00 00 00 00 00 00 00 00 
  1648)      4672.9  Rx         0383  8  4E 0D 01 00 4E 0D 01 00 
  1649)      4673.9  Rx         0384  8  00 00 00 00 08 00 00 00 
  1650)      4674.9  Rx         0386  8  4E 0D 01 00 4E 0D 01 00 
  1651)      4675.9  Rx         0387  8  00 00 00 00 08 00 00 00 
  1652)      4681.0  Rx         010B  6  00 00 00 00 00 00 
  1653)      4681.8  Rx         020B  5  04 01 00 00 01 
  1654)      4682.8  Rx         030B  8  18 00 00 00 00 00 00 00 
  1655)      4687.6  Rx         0197  4  FA 14 F4 01 
  1656)      4689.6  Rx         019E  4  F3 2F F4 01 
  1657)      4690.5  Rx         01B0  4  82 0D F4 01 
  1658)      4692.7  Rx         01CB  8  00 00 00 00 00 00 D8 03 
  1659)      4693.4  Rx         02CB  4  00 00 1C 00 
  1660)      4694.2  Rx         03CB  5  01 00 00 00 00 
  1661)      4704.3  Rx         0196  4  E8 2F F4 01 
  1662)      4713.1  Rx         01A3  4  83 0D F4 01 
  1663)      4722.0  Rx         0185  8  FF FF FF FF FF FF FF FF 
  1664)      4722.6  Rx         0285  3  00 00 00 
  1665)      4723.6  Rx         0385  8  00 00 00 00 00 00 00 00 
  1666)      4724.6  Rx         0183  8  00 00 00 00 00 00 00 00 
  1667)      4726.3  Rx         071E  1  05 
  1668)      4728.8  Rx         0773  1  05 
  1669)      4737.7  Rx         0197  4  FA 14 F4 01 
  1670)      4739.5  Rx         019E  4  F3 2F F4 01 
  1671)      4740.5  Rx         01B0  4  82 0D F4 01 
  1672)      4744.0  Rx         0716  1  05 
  1673)      4748.1  Rx         074B  1  05 
  1674)      4749.2  Rx         01CB  8  00 00 00 00 00 00 D8 03 
  1675)      4749.8  Rx         02CB  4  00 00 1C 00 
  1676)      4750.6  Rx         03CB  5  01 00 00 00 00 
  1677)      4751.9  Rx         0723  1  05 
  1678)      4754.3  Rx         0196  4  E8 2F F4 01 
  1679)      4763.2  Rx         01A3  4  83 0D F4 01 
  1680)      4780.0  Rx         0185  8  FF FF FF FF FF FF FF FF 
  1681)      4780.6  Rx         0285  3  00 00 00 
  1682)      4781.5  Rx         010B  6  00 00 00 00 00 00 
  1683)      4782.4  Rx         0385  8  00 00 00 00 00 00 00 00 
  1684)      4783.2  Rx         020B  5  04 01 00 00 01 
  1685)      4784.2  Rx         0183  8  00 00 00 00 00 00 00 00 
  1686)      4785.2  Rx         030B  8  18 00 00 00 00 00 00 00 
  1687)      4785.7  Rx         070B  1  05 
  1688)      4787.6  Rx         0197  4  FA 14 F4 01 
  1689)      4789.6  Rx         019E  4  F3 2F F4 01 
  1690)      4790.5  Rx         01B0  4  82 0D F4 01 
  1691)      4791.0  Rx         0701  1  05 
